Freq.	V(n006)
1.00000000000000e+003	(-1.31346405551494e+002dB,1.76084738863916e+002°)
1.00230523807790e+003	(-1.31225820466654e+002dB,1.76075860170739e+002°)
1.00461579027840e+003	(-1.31105232675315e+002dB,1.76066959951964e+002°)
1.00693166885180e+003	(-1.30984642164832e+002dB,1.76058038155151e+002°)
1.00925288607668e+003	(-1.30864048922511e+002dB,1.76049094728119e+002°)
1.01157945425990e+003	(-1.30743452935601e+002dB,1.76040129618235e+002°)
1.01391138573668e+003	(-1.30622854191268e+002dB,1.76031142772746e+002°)
1.01624869287070e+003	(-1.30502252676650e+002dB,1.76022134139031e+002°)
1.01859138805412e+003	(-1.30381648378815e+002dB,1.76013103663904e+002°)
1.02093948370768e+003	(-1.30261041284744e+002dB,1.76004051294418e+002°)
1.02329299228075e+003	(-1.30140431381395e+002dB,1.75994976977155e+002°)
1.02565192625141e+003	(-1.30019818655650e+002dB,1.75985880658749e+002°)
1.02801629812647e+003	(-1.29899203094313e+002dB,1.75976762285479e+002°)
1.03038612044162e+003	(-1.29778584684158e+002dB,1.75967621803828e+002°)
1.03276140576140e+003	(-1.29657963411873e+002dB,1.75958459159656e+002°)
1.03514216667934e+003	(-1.29537339264078e+002dB,1.75949274299048e+002°)
1.03752841581801e+003	(-1.29416712227360e+002dB,1.75940067167731e+002°)
1.03992016582906e+003	(-1.29296082288212e+002dB,1.75930837711350e+002°)
1.04231742939330e+003	(-1.29175449433084e+002dB,1.75921585875359e+002°)
1.04472021922080e+003	(-1.29054813648355e+002dB,1.75912311605077e+002°)
1.04712854805090e+003	(-1.28934174920343e+002dB,1.75903014845652e+002°)
1.04954242865232e+003	(-1.28813533235284e+002dB,1.75893695542184e+002°)
1.05196187382322e+003	(-1.28692888579379e+002dB,1.75884353639329e+002°)
1.05438689639126e+003	(-1.28572240938742e+002dB,1.75874989081842e+002°)
1.05681750921366e+003	(-1.28451590299435e+002dB,1.75865601814275e+002°)
1.05925372517729e+003	(-1.28330936647448e+002dB,1.75856191780828e+002°)
1.06169555719872e+003	(-1.28210279968694e+002dB,1.75846758925885e+002°)
1.06414301822431e+003	(-1.28089620249054e+002dB,1.75837303193379e+002°)
1.06659612123026e+003	(-1.27968957474295e+002dB,1.75827824527171e+002°)
1.06905487922266e+003	(-1.27848291630156e+002dB,1.75818322871010e+002°)
1.07151930523761e+003	(-1.27727622702298e+002dB,1.75808798168370e+002°)
1.07398941234124e+003	(-1.27606950676296e+002dB,1.75799250362626e+002°)
1.07646521362983e+003	(-1.27486275537692e+002dB,1.75789679397068e+002°)
1.07894672222983e+003	(-1.27365597271927e+002dB,1.75780085214605e+002°)
1.08143395129794e+003	(-1.27244915864394e+002dB,1.75770467758149e+002°)
1.08392691402120e+003	(-1.27124231300409e+002dB,1.75760826970411e+002°)
1.08642562361706e+003	(-1.27003543565221e+002dB,1.75751162793998e+002°)
1.08893009333343e+003	(-1.26882852644003e+002dB,1.75741475171175e+002°)
1.09144033644875e+003	(-1.26762158521873e+002dB,1.75731764044162e+002°)
1.09395636627209e+003	(-1.26641461183865e+002dB,1.75722029355024e+002°)
1.09647819614318e+003	(-1.26520760614948e+002dB,1.75712271045592e+002°)
1.09900583943252e+003	(-1.26400056800021e+002dB,1.75702489057577e+002°)
1.10153930954141e+003	(-1.26279349723911e+002dB,1.75692683332405e+002°)
1.10407861990207e+003	(-1.26158639371372e+002dB,1.75682853811531e+002°)
1.10662378397766e+003	(-1.26037925727088e+002dB,1.75673000436086e+002°)
1.10917481526240e+003	(-1.25917208775671e+002dB,1.75663123146971e+002°)
1.11173172728159e+003	(-1.25796488501662e+002dB,1.75653221885118e+002°)
1.11429453359173e+003	(-1.25675764889523e+002dB,1.75643296591135e+002°)
1.11686324778056e+003	(-1.25555037923645e+002dB,1.75633347205481e+002°)
1.11943788346715e+003	(-1.25434307588350e+002dB,1.75623373668471e+002°)
1.12201845430196e+003	(-1.25313573867887e+002dB,1.75613375920116e+002°)
1.12460497396692e+003	(-1.25192836746421e+002dB,1.75603353900557e+002°)
1.12719745617551e+003	(-1.25072096208057e+002dB,1.75593307549367e+002°)
1.12979591467279e+003	(-1.24951352236807e+002dB,1.75583236806120e+002°)
1.13240036323555e+003	(-1.24830604816621e+002dB,1.75573141610392e+002°)
1.13501081567231e+003	(-1.24709853931364e+002dB,1.75563021901196e+002°)
1.13762728582343e+003	(-1.24589099564840e+002dB,1.75552877617707e+002°)
1.14024978756117e+003	(-1.24468341700760e+002dB,1.75542708698637e+002°)
1.14287833478977e+003	(-1.24347580322771e+002dB,1.75532515082876e+002°)
1.14551294144553e+003	(-1.24226815414429e+002dB,1.75522296708761e+002°)
1.14815362149688e+003	(-1.24106046959225e+002dB,1.75512053514606e+002°)
1.15080038894443e+003	(-1.23985274940566e+002dB,1.75501785438570e+002°)
1.15345325782109e+003	(-1.23864499341778e+002dB,1.75491492418635e+002°)
1.15611224219210e+003	(-1.23743720146124e+002dB,1.75481174392348e+002°)
1.15877735615512e+003	(-1.23622937336765e+002dB,1.75470831297414e+002°)
1.16144861384034e+003	(-1.23502150896797e+002dB,1.75460463071253e+002°)
1.16412602941049e+003	(-1.23381360809234e+002dB,1.75450069650991e+002°)
1.16680961706096e+003	(-1.23260567057007e+002dB,1.75439650973610e+002°)
1.16949939101987e+003	(-1.23139769622967e+002dB,1.75429206975988e+002°)
1.17219536554813e+003	(-1.23018968489889e+002dB,1.75418737594555e+002°)
1.17489755493953e+003	(-1.22898163640460e+002dB,1.75408242765978e+002°)
1.17760597352080e+003	(-1.22777355057290e+002dB,1.75397722426303e+002°)
1.18032063565173e+003	(-1.22656542722897e+002dB,1.75387176511717e+002°)
1.18304155572516e+003	(-1.22535726619737e+002dB,1.75376604957949e+002°)
1.18576874816716e+003	(-1.22414906730158e+002dB,1.75366007700694e+002°)
1.18850222743701e+003	(-1.22294083036444e+002dB,1.75355384675459e+002°)
1.19124200802737e+003	(-1.22173255520784e+002dB,1.75344735817386e+002°)
1.19398810446427e+003	(-1.22052424165286e+002dB,1.75334061061704e+002°)
1.19674053130724e+003	(-1.21931588951979e+002dB,1.75323360343143e+002°)
1.19949930314937e+003	(-1.21810749862797e+002dB,1.75312633596362e+002°)
1.20226443461741e+003	(-1.21689906879592e+002dB,1.75301880755956e+002°)
1.20503594037179e+003	(-1.21569059984136e+002dB,1.75291101756122e+002°)
1.20781383510678e+003	(-1.21448209158111e+002dB,1.75280296530909e+002°)
1.21059813355048e+003	(-1.21327354383108e+002dB,1.75269465014249e+002°)
1.21338885046497e+003	(-1.21206495640638e+002dB,1.75258607139791e+002°)
1.21618600064636e+003	(-1.21085632912114e+002dB,1.75247722840938e+002°)
1.21898959892486e+003	(-1.20964766178878e+002dB,1.75236812050998e+002°)
1.22179966016487e+003	(-1.20843895422164e+002dB,1.75225874703111e+002°)
1.22461619926504e+003	(-1.20723020623132e+002dB,1.75214910729992e+002°)
1.22743923115840e+003	(-1.20602141762850e+002dB,1.75203920064298e+002°)
1.23026877081238e+003	(-1.20481258822290e+002dB,1.75192902638553e+002°)
1.23310483322890e+003	(-1.20360371782336e+002dB,1.75181858384898e+002°)
1.23594743344450e+003	(-1.20239480623783e+002dB,1.75170787235432e+002°)
1.23879658653036e+003	(-1.20118585327340e+002dB,1.75159689121951e+002°)
1.24165230759241e+003	(-1.19997685873620e+002dB,1.75148563976011e+002°)
1.24451461177138e+003	(-1.19876782243138e+002dB,1.75137411729069e+002°)
1.24738351424294e+003	(-1.19755874416321e+002dB,1.75126232312227e+002°)
1.25025903021771e+003	(-1.19634962373511e+002dB,1.75115025656511e+002°)
1.25314117494141e+003	(-1.19514046094952e+002dB,1.75103791692671e+002°)
1.25602996369487e+003	(-1.19393125560783e+002dB,1.75092530351256e+002°)
1.25892541179416e+003	(-1.19272200751064e+002dB,1.75081241562529e+002°)
1.26182753459066e+003	(-1.19151271645759e+002dB,1.75069925256624e+002°)
1.26473634747115e+003	(-1.19030338224722e+002dB,1.75058581363480e+002°)
1.26765186585784e+003	(-1.18909400467733e+002dB,1.75047209812691e+002°)
1.27057410520854e+003	(-1.18788458354462e+002dB,1.75035810533740e+002°)
1.27350308101666e+003	(-1.18667511864482e+002dB,1.75024383455885e+002°)
1.27643880881134e+003	(-1.18546560977273e+002dB,1.75012928508171e+002°)
1.27938130415752e+003	(-1.18425605672219e+002dB,1.75001445619287e+002°)
1.28233058265601e+003	(-1.18304645928608e+002dB,1.74989934717842e+002°)
1.28528665994361e+003	(-1.18183681725622e+002dB,1.74978395732213e+002°)
1.28824955169313e+003	(-1.18062713042344e+002dB,1.74966828590491e+002°)
1.29121927361353e+003	(-1.17941739857768e+002dB,1.74955233220615e+002°)
1.29419584144998e+003	(-1.17820762150781e+002dB,1.74943609550172e+002°)
1.29717927098395e+003	(-1.17699779900169e+002dB,1.74931957506694e+002°)
1.30016957803328e+003	(-1.17578793084620e+002dB,1.74920277017295e+002°)
1.30316677845229e+003	(-1.17457801682720e+002dB,1.74908568009030e+002°)
1.30617088813183e+003	(-1.17336805672946e+002dB,1.74896830408656e+002°)
1.30918192299940e+003	(-1.17215805033690e+002dB,1.74885064142684e+002°)
1.31219989901920e+003	(-1.17094799743224e+002dB,1.74873269137409e+002°)
1.31522483219223e+003	(-1.16973789779721e+002dB,1.74861445318842e+002°)
1.31825673855640e+003	(-1.16852775121261e+002dB,1.74849592612872e+002°)
1.32129563418657e+003	(-1.16731755745800e+002dB,1.74837710945096e+002°)
1.32434153519466e+003	(-1.16610731631207e+002dB,1.74825800240776e+002°)
1.32739445772973e+003	(-1.16489702755237e+002dB,1.74813860425103e+002°)
1.33045441797808e+003	(-1.16368669095541e+002dB,1.74801891422977e+002°)
1.33352143216332e+003	(-1.16247630629665e+002dB,1.74789893158999e+002°)
1.33659551654643e+003	(-1.16126587335044e+002dB,1.74777865557575e+002°)
1.33967668742593e+003	(-1.16005539189011e+002dB,1.74765808542874e+002°)
1.34276496113786e+003	(-1.15884486168785e+002dB,1.74753722038807e+002°)
1.34586035405594e+003	(-1.15763428251484e+002dB,1.74741605969046e+002°)
1.34896288259165e+003	(-1.15642365414105e+002dB,1.74729460257025e+002°)
1.35207256319427e+003	(-1.15521297633552e+002dB,1.74717284825900e+002°)
1.35518941235103e+003	(-1.15400224886605e+002dB,1.74705079598704e+002°)
1.35831344658715e+003	(-1.15279147149937e+002dB,1.74692844498048e+002°)
1.36144468246594e+003	(-1.15158064400115e+002dB,1.74680579446371e+002°)
1.36458313658892e+003	(-1.15036976613587e+002dB,1.74668284365935e+002°)
1.36772882559584e+003	(-1.14915883766696e+002dB,1.74655959178663e+002°)
1.37088176616484e+003	(-1.14794785835662e+002dB,1.74643603806248e+002°)
1.37404197501251e+003	(-1.14673682796602e+002dB,1.74631218170096e+002°)
1.37720946889394e+003	(-1.14552574625516e+002dB,1.74618802191436e+002°)
1.38038426460288e+003	(-1.14431461298285e+002dB,1.74606355791155e+002°)
1.38356637897177e+003	(-1.14310342790680e+002dB,1.74593878890023e+002°)
1.38675582887188e+003	(-1.14189219078352e+002dB,1.74581371408369e+002°)
1.38995263121334e+003	(-1.14068090136842e+002dB,1.74568833266426e+002°)
1.39315680294529e+003	(-1.13946955941567e+002dB,1.74556264384040e+002°)
1.39636836105593e+003	(-1.13825816467834e+002dB,1.74543664680901e+002°)
1.39958732257261e+003	(-1.13704671690825e+002dB,1.74531034076378e+002°)
1.40281370456195e+003	(-1.13583521585607e+002dB,1.74518372489574e+002°)
1.40604752412990e+003	(-1.13462366127128e+002dB,1.74505679839379e+002°)
1.40928879842186e+003	(-1.13341205290212e+002dB,1.74492956044366e+002°)
1.41253754462274e+003	(-1.13220039049575e+002dB,1.74480201022897e+002°)
1.41579377995707e+003	(-1.13098867379797e+002dB,1.74467414692946e+002°)
1.41905752168908e+003	(-1.12977690255341e+002dB,1.74454596972452e+002°)
1.42232878712281e+003	(-1.12856507650557e+002dB,1.74441747778794e+002°)
1.42560759360218e+003	(-1.12735319539659e+002dB,1.74428867029286e+002°)
1.42889395851109e+003	(-1.12614125896746e+002dB,1.74415954640912e+002°)
1.43218789927353e+003	(-1.12492926695792e+002dB,1.74403010530350e+002°)
1.43548943335364e+003	(-1.12371721910643e+002dB,1.74390034614085e+002°)
1.43879857825583e+003	(-1.12250511515024e+002dB,1.74377026808273e+002°)
1.44211535152486e+003	(-1.12129295482532e+002dB,1.74363987028718e+002°)
1.44543977074592e+003	(-1.12008073786635e+002dB,1.74350915191129e+002°)
1.44877185354475e+003	(-1.11886846400681e+002dB,1.74337811210716e+002°)
1.45211161758773e+003	(-1.11765613297886e+002dB,1.74324675002621e+002°)
1.45545908058195e+003	(-1.11644374451336e+002dB,1.74311506481579e+002°)
1.45881426027534e+003	(-1.11523129833991e+002dB,1.74298305562065e+002°)
1.46217717445671e+003	(-1.11401879418681e+002dB,1.74285072158278e+002°)
1.46554784095590e+003	(-1.11280623178102e+002dB,1.74271806184102e+002°)
1.46892627764385e+003	(-1.11159361084824e+002dB,1.74258507553243e+002°)
1.47231250243271e+003	(-1.11038093111286e+002dB,1.74245176178912e+002°)
1.47570653327588e+003	(-1.10916819229793e+002dB,1.74231811974276e+002°)
1.47910838816819e+003	(-1.10795539412512e+002dB,1.74218414852042e+002°)
1.48251808514594e+003	(-1.10674253631486e+002dB,1.74204984724626e+002°)
1.48593564228699e+003	(-1.10552961858614e+002dB,1.74191521504300e+002°)
1.48936107771090e+003	(-1.10431664065672e+002dB,1.74178025102874e+002°)
1.49279440957898e+003	(-1.10310360224290e+002dB,1.74164495431943e+002°)
1.49623565609442e+003	(-1.10189050305963e+002dB,1.74150932402816e+002°)
1.49968483550236e+003	(-1.10067734282056e+002dB,1.74137335926432e+002°)
1.50314196609001e+003	(-1.09946412123795e+002dB,1.74123705913512e+002°)
1.50660706618673e+003	(-1.09825083802257e+002dB,1.74110042274467e+002°)
1.51008015416413e+003	(-1.09703749288393e+002dB,1.74096344919297e+002°)
1.51356124843619e+003	(-1.09582408553010e+002dB,1.74082613757868e+002°)
1.51705036745932e+003	(-1.09461061566768e+002dB,1.74068848699617e+002°)
1.52054752973248e+003	(-1.09339708300203e+002dB,1.74055049653668e+002°)
1.52405275379728e+003	(-1.09218348723688e+002dB,1.74041216528943e+002°)
1.52756605823806e+003	(-1.09096982807470e+002dB,1.74027349233983e+002°)
1.53108746168201e+003	(-1.08975610521645e+002dB,1.74013447676996e+002°)
1.53461698279928e+003	(-1.08854231836166e+002dB,1.73999511765948e+002°)
1.53815464030302e+003	(-1.08732846720847e+002dB,1.73985541408390e+002°)
1.54170045294954e+003	(-1.08611455145346e+002dB,1.73971536511643e+002°)
1.54525443953840e+003	(-1.08490057079184e+002dB,1.73957496982717e+002°)
1.54881661891247e+003	(-1.08368652491733e+002dB,1.73943422728265e+002°)
1.55238700995807e+003	(-1.08247241352217e+002dB,1.73929313654581e+002°)
1.55596563160506e+003	(-1.08125823629712e+002dB,1.73915169667727e+002°)
1.55955250282694e+003	(-1.08004399293142e+002dB,1.73900990673399e+002°)
1.56314764264094e+003	(-1.07882968311284e+002dB,1.73886776576974e+002°)
1.56675107010813e+003	(-1.07761530652770e+002dB,1.73872527283444e+002°)
1.57036280433354e+003	(-1.07640086286071e+002dB,1.73858242697597e+002°)
1.57398286446620e+003	(-1.07518635179510e+002dB,1.73843922723768e+002°)
1.57761126969933e+003	(-1.07397177301259e+002dB,1.73829567266070e+002°)
1.58124803927037e+003	(-1.07275712619335e+002dB,1.73815176228196e+002°)
1.58489319246110e+003	(-1.07154241101599e+002dB,1.73800749513529e+002°)
1.58854674859776e+003	(-1.07032762715762e+002dB,1.73786287025172e+002°)
1.59220872705115e+003	(-1.06911277429370e+002dB,1.73771788665820e+002°)
1.59587914723672e+003	(-1.06789785209825e+002dB,1.73757254337845e+002°)
1.59955802861465e+003	(-1.06668286024362e+002dB,1.73742683943307e+002°)
1.60324539069002e+003	(-1.06546779840060e+002dB,1.73728077383913e+002°)
1.60694125301286e+003	(-1.06425266623841e+002dB,1.73713434561019e+002°)
1.61064563517825e+003	(-1.06303746342465e+002dB,1.73698755375616e+002°)
1.61435855682647e+003	(-1.06182218962529e+002dB,1.73684039728388e+002°)
1.61808003764305e+003	(-1.06060684450477e+002dB,1.73669287519698e+002°)
1.62181009735891e+003	(-1.05939142772584e+002dB,1.73654498649423e+002°)
1.62554875575047e+003	(-1.05817593894962e+002dB,1.73639673017283e+002°)
1.62929603263970e+003	(-1.05696037783560e+002dB,1.73624810522465e+002°)
1.63305194789432e+003	(-1.05574474404165e+002dB,1.73609911063929e+002°)
1.63681652142779e+003	(-1.05452903722394e+002dB,1.73594974540193e+002°)
1.64058977319952e+003	(-1.05331325703703e+002dB,1.73580000849452e+002°)
1.64437172321491e+003	(-1.05209740313376e+002dB,1.73564989889580e+002°)
1.64816239152549e+003	(-1.05088147516530e+002dB,1.73549941558019e+002°)
1.65196179822900e+003	(-1.04966547278115e+002dB,1.73534855751890e+002°)
1.65576996346951e+003	(-1.04844939562906e+002dB,1.73519732367940e+002°)
1.65958690743754e+003	(-1.04723324335517e+002dB,1.73504571302518e+002°)
1.66341265037015e+003	(-1.04601701560382e+002dB,1.73489372451652e+002°)
1.66724721255104e+003	(-1.04480071201764e+002dB,1.73474135710999e+002°)
1.67109061431069e+003	(-1.04358433223755e+002dB,1.73458860975824e+002°)
1.67494287602642e+003	(-1.04236787590275e+002dB,1.73443548140964e+002°)
1.67880401812254e+003	(-1.04115134265063e+002dB,1.73428197100982e+002°)
1.68267406107045e+003	(-1.03993473211684e+002dB,1.73412807750008e+002°)
1.68655302538872e+003	(-1.03871804393531e+002dB,1.73397379981789e+002°)
1.69044093164324e+003	(-1.03750127773812e+002dB,1.73381913689710e+002°)
1.69433780044731e+003	(-1.03628443315562e+002dB,1.73366408766748e+002°)
1.69824365246172e+003	(-1.03506750981635e+002dB,1.73350865105524e+002°)
1.70215850839493e+003	(-1.03385050734702e+002dB,1.73335282598255e+002°)
1.70608238900310e+003	(-1.03263342537258e+002dB,1.73319661136734e+002°)
1.71001531509027e+003	(-1.03141626351609e+002dB,1.73304000612454e+002°)
1.71395730750840e+003	(-1.03019902139882e+002dB,1.73288300916425e+002°)
1.71790838715757e+003	(-1.02898169864021e+002dB,1.73272561939300e+002°)
1.72186857498598e+003	(-1.02776429485783e+002dB,1.73256783571326e+002°)
1.72583789199018e+003	(-1.02654680966735e+002dB,1.73240965702384e+002°)
1.72981635921508e+003	(-1.02532924268267e+002dB,1.73225108221905e+002°)
1.73380399775412e+003	(-1.02411159351572e+002dB,1.73209211018916e+002°)
1.73780082874935e+003	(-1.02289386177657e+002dB,1.73193273982088e+002°)
1.74180687339159e+003	(-1.02167604707343e+002dB,1.73177296999651e+002°)
1.74582215292048e+003	(-1.02045814901252e+002dB,1.73161279959426e+002°)
1.74984668862463e+003	(-1.01924016719822e+002dB,1.73145222748823e+002°)
1.75388050184174e+003	(-1.01802210123293e+002dB,1.73129125254868e+002°)
1.75792361395867e+003	(-1.01680395071714e+002dB,1.73112987364110e+002°)
1.76197604641161e+003	(-1.01558571524941e+002dB,1.73096808962744e+002°)
1.76603782068614e+003	(-1.01436739442630e+002dB,1.73080589936504e+002°)
1.77010895831740e+003	(-1.01314898784243e+002dB,1.73064330170721e+002°)
1.77418948089014e+003	(-1.01193049509042e+002dB,1.73048029550296e+002°)
1.77827941003890e+003	(-1.01071191576091e+002dB,1.73031687959718e+002°)
1.78237876744807e+003	(-1.00949324944258e+002dB,1.73015305283013e+002°)
1.78648757485203e+003	(-1.00827449572205e+002dB,1.72998881403809e+002°)
1.79060585403527e+003	(-1.00705565418394e+002dB,1.72982416205285e+002°)
1.79473362683250e+003	(-1.00583672441085e+002dB,1.72965909570197e+002°)
1.79887091512876e+003	(-1.00461770598332e+002dB,1.72949361380851e+002°)
1.80301774085954e+003	(-1.00339859847989e+002dB,1.72932771519110e+002°)
1.80717412601090e+003	(-1.00217940147696e+002dB,1.72916139866434e+002°)
1.81134009261958e+003	(-1.00096011454892e+002dB,1.72899466303782e+002°)
1.81551566277311e+003	(-9.99740737268060e+001dB,1.72882750711701e+002°)
1.81970085860996e+003	(-9.98521269204564e+001dB,1.72865992970280e+002°)
1.82389570231961e+003	(-9.97301709926560e+001dB,1.72849192959167e+002°)
1.82810021614272e+003	(-9.96082059000015e+001dB,1.72832350557527e+002°)
1.83231442237119e+003	(-9.94862315988773e+001dB,1.72815465644117e+002°)
1.83653834334832e+003	(-9.93642480454558e+001dB,1.72798538097197e+002°)
1.84077200146893e+003	(-9.92422551956935e+001dB,1.72781567794584e+002°)
1.84501541917945e+003	(-9.91202530053347e+001dB,1.72764554613631e+002°)
1.84926861897805e+003	(-9.89982414298994e+001dB,1.72747498431221e+002°)
1.85353162341478e+003	(-9.88762204247005e+001dB,1.72730399123747e+002°)
1.85780445509167e+003	(-9.87541899448199e+001dB,1.72713256567199e+002°)
1.86208713666284e+003	(-9.86321499451267e+001dB,1.72696070636993e+002°)
1.86637969083464e+003	(-9.85101003802644e+001dB,1.72678841208192e+002°)
1.87068214036577e+003	(-9.83880412046609e+001dB,1.72661568155255e+002°)
1.87499450806739e+003	(-9.82659723725094e+001dB,1.72644251352266e+002°)
1.87931681680324e+003	(-9.81438938377877e+001dB,1.72626890672763e+002°)
1.88364908948977e+003	(-9.80218055542443e+001dB,1.72609485989824e+002°)
1.88799134909627e+003	(-9.78997074753987e+001dB,1.72592037176027e+002°)
