Freq.	V(vo)
1.00000000000000e+003	(-3.06628350898192e+002dB,-1.26261275993732e+001°)
1.00230523807790e+003	(-3.06387713344540e+002dB,-1.26551040249098e+001°)
1.00461579027840e+003	(-3.06147072842752e+002dB,-1.26841485487372e+001°)
1.00693166885180e+003	(-3.05906429378737e+002dB,-1.27132613260370e+001°)
1.00925288607668e+003	(-3.05665782939428e+002dB,-1.27424425231865e+001°)
1.01157945425990e+003	(-3.05425133510973e+002dB,-1.27716923006637e+001°)
1.01391138573668e+003	(-3.05184481078846e+002dB,-1.28010108198173e+001°)
1.01624869287070e+003	(-3.04943825628607e+002dB,-1.28303982440962e+001°)
1.01859138805412e+003	(-3.04703167147628e+002dB,-1.28598547340688e+001°)
1.02093948370768e+003	(-3.04462505619735e+002dB,-1.28893804582723e+001°)
1.02329299228075e+003	(-3.04221841032980e+002dB,-1.29189755762708e+001°)
1.02565192625141e+003	(-3.03981173371712e+002dB,-1.29486402556614e+001°)
1.02801629812647e+003	(-3.03740502622599e+002dB,-1.29783746571952e+001°)
1.03038612044162e+003	(-3.03499828769314e+002dB,-1.30081789480357e+001°)
1.03276140576140e+003	(-3.03259151799700e+002dB,-1.30380532937378e+001°)
1.03514216667934e+003	(-3.03018471697350e+002dB,-1.30679978599275e+001°)
1.03752841581801e+003	(-3.02777788448904e+002dB,-1.30980128147653e+001°)
1.03992016582906e+003	(-3.02537102039117e+002dB,-1.31280983228367e+001°)
1.04231742939330e+003	(-3.02296412453645e+002dB,-1.31582545536994e+001°)
1.04472021922080e+003	(-3.02055719676786e+002dB,-1.31884816710619e+001°)
1.04712854805090e+003	(-3.01815023694673e+002dB,-1.32187798474926e+001°)
1.04954242865232e+003	(-3.01574324491579e+002dB,-1.32491492488640e+001°)
1.05196187382322e+003	(-3.01333622053379e+002dB,-1.32795900455130e+001°)
1.05438689639126e+003	(-3.01092916364052e+002dB,-1.33101024052237e+001°)
1.05681750921366e+003	(-3.00852207408771e+002dB,-1.33406865007342e+001°)
1.05925372517729e+003	(-3.00611495173190e+002dB,-1.33713424987884e+001°)
1.06169555719872e+003	(-3.00370779640287e+002dB,-1.34020705734865e+001°)
1.06414301822431e+003	(-3.00130060795837e+002dB,-1.34328708918717e+001°)
1.06659612123026e+003	(-2.99889338623915e+002dB,-1.34637436299976e+001°)
1.06905487922266e+003	(-2.99648613109291e+002dB,-1.34946889576337e+001°)
1.07151930523761e+003	(-2.99407884236241e+002dB,-1.35257070479128e+001°)
1.07398941234124e+003	(-2.99167151989156e+002dB,-1.35567980721284e+001°)
1.07646521362983e+003	(-2.98926416352202e+002dB,-1.35879622064672e+001°)
1.07894672222983e+003	(-2.98685677309904e+002dB,-1.36191996223528e+001°)
1.08143395129794e+003	(-2.98444934845594e+002dB,-1.36505104952370e+001°)
1.08392691402120e+003	(-2.98204188944404e+002dB,-1.36818949996637e+001°)
1.08642562361706e+003	(-2.97963439589236e+002dB,-1.37133533110387e+001°)
1.08893009333343e+003	(-2.97722686764435e+002dB,-1.37448856045308e+001°)
1.09144033644875e+003	(-2.97481930453682e+002dB,-1.37764920564716e+001°)
1.09395636627209e+003	(-2.97241170641352e+002dB,-1.38081728440137e+001°)
1.09647819614318e+003	(-2.97000407310234e+002dB,-1.38399281426473e+001°)
1.09900583943252e+003	(-2.96759640443943e+002dB,-1.38717581318163e+001°)
1.10153930954141e+003	(-2.96518870026519e+002dB,-1.39036629868787e+001°)
1.10407861990207e+003	(-2.96278096041328e+002dB,-1.39356428897617e+001°)
1.10662378397766e+003	(-2.96037318471444e+002dB,-1.39676980147632e+001°)
1.10917481526240e+003	(-2.95796537300206e+002dB,-1.39998285449827e+001°)
1.11173172728159e+003	(-2.95555752510694e+002dB,-1.40320346587349e+001°)
1.11429453359173e+003	(-2.95314964086505e+002dB,-1.40643165380486e+001°)
1.11686324778056e+003	(-2.95074172009748e+002dB,-1.40966743594220e+001°)
1.11943788346715e+003	(-2.94833376264226e+002dB,-1.41291083086403e+001°)
1.12201845430196e+003	(-2.94592576832465e+002dB,-1.41616185649135e+001°)
1.12460497396692e+003	(-2.94351773697237e+002dB,-1.41942053111411e+001°)
1.12719745617551e+003	(-2.94110966841366e+002dB,-1.42268687290019e+001°)
1.12979591467279e+003	(-2.93870156247483e+002dB,-1.42596090021042e+001°)
1.13240036323555e+003	(-2.93629341898072e+002dB,-1.42924263143711e+001°)
1.13501081567231e+003	(-2.93388523775893e+002dB,-1.43253208494263e+001°)
1.13762728582343e+003	(-2.93147701862538e+002dB,-1.43582927928179e+001°)
1.14024978756117e+003	(-2.92906876141004e+002dB,-1.43913423272684e+001°)
1.14287833478977e+003	(-2.92666046593552e+002dB,-1.44244696405130e+001°)
1.14551294144553e+003	(-2.92425213201778e+002dB,-1.44576749183021e+001°)
1.14815362149688e+003	(-2.92184375948197e+002dB,-1.44909583454957e+001°)
1.15080038894443e+003	(-2.91943534814204e+002dB,-1.45243201099349e+001°)
1.15345325782109e+003	(-2.91702689782148e+002dB,-1.45577603999488e+001°)
1.15611224219210e+003	(-2.91461840834173e+002dB,-1.45912794020043e+001°)
1.15877735615512e+003	(-2.91220987951401e+002dB,-1.46248773052219e+001°)
1.16144861384034e+003	(-2.90980131115689e+002dB,-1.46585542983719e+001°)
1.16412602941049e+003	(-2.90739270308434e+002dB,-1.46923105708766e+001°)
1.16680961706096e+003	(-2.90498405510858e+002dB,-1.47261463126915e+001°)
1.16949939101987e+003	(-2.90257536704860e+002dB,-1.47600617144623e+001°)
1.17219536554813e+003	(-2.90016663871604e+002dB,-1.47940569668851e+001°)
1.17489755493953e+003	(-2.89775786992118e+002dB,-1.48281322611758e+001°)
1.17760597352080e+003	(-2.89534906047188e+002dB,-1.48622877878441e+001°)
1.18032063565173e+003	(-2.89294021018278e+002dB,-1.48965237419696e+001°)
1.18304155572516e+003	(-2.89053131886066e+002dB,-1.49308403150379e+001°)
1.18576874816716e+003	(-2.88812238631646e+002dB,-1.49652377014154e+001°)
1.18850222743701e+003	(-2.88571341235479e+002dB,-1.49997160945868e+001°)
1.19124200802737e+003	(-2.88330439678568e+002dB,-1.50342756872885e+001°)
1.19398810446427e+003	(-2.88089533941105e+002dB,-1.50689166758376e+001°)
1.19674053130724e+003	(-2.87848624003310e+002dB,-1.51036392563396e+001°)
1.19949930314937e+003	(-2.87607709846264e+002dB,-1.51384436241670e+001°)
1.20226443461741e+003	(-2.87366791449928e+002dB,-1.51733299761399e+001°)
1.20503594037179e+003	(-2.87125868794396e+002dB,-1.52082985080434e+001°)
1.20781383510678e+003	(-2.86884941859506e+002dB,-1.52433494186453e+001°)
1.21059813355048e+003	(-2.86644010626042e+002dB,-1.52784829067946e+001°)
1.21338885046497e+003	(-2.86403075073209e+002dB,-1.53136991689064e+001°)
1.21618600064636e+003	(-2.86162135180987e+002dB,-1.53489984051034e+001°)
1.21898959892486e+003	(-2.85921190929095e+002dB,-1.53843808154824e+001°)
1.22179966016487e+003	(-2.85680242297467e+002dB,-1.54198465998971e+001°)
1.22461619926504e+003	(-2.85439289264980e+002dB,-1.54553959584039e+001°)
1.22743923115840e+003	(-2.85198331811662e+002dB,-1.54910290933495e+001°)
1.23026877081238e+003	(-2.84957369916542e+002dB,-1.55267462050481e+001°)
1.23310483322890e+003	(-2.84716403558709e+002dB,-1.55625474975108e+001°)
1.23594743344450e+003	(-2.84475432717986e+002dB,-1.55984331724607e+001°)
1.23879658653036e+003	(-2.84234457372547e+002dB,-1.56344034338683e+001°)
1.24165230759241e+003	(-2.83993477501709e+002dB,-1.56704584837084e+001°)
1.24451461177138e+003	(-2.83752493084370e+002dB,-1.57065985297817e+001°)
1.24738351424294e+003	(-2.83511504099245e+002dB,-1.57428237749916e+001°)
1.25025903021771e+003	(-2.83270510524927e+002dB,-1.57791344247802e+001°)
1.25314117494141e+003	(-2.83029512339729e+002dB,-1.58155306861494e+001°)
1.25602996369487e+003	(-2.82788509522436e+002dB,-1.58520127648642e+001°)
1.25892541179416e+003	(-2.82547502051168e+002dB,-1.58885808695198e+001°)
1.26182753459066e+003	(-2.82306489904088e+002dB,-1.59252352062186e+001°)
1.26473634747115e+003	(-2.82065473059870e+002dB,-1.59619759843124e+001°)
1.26765186585784e+003	(-2.81824451495750e+002dB,-1.59988034112865e+001°)
1.27057410520854e+003	(-2.81583425190080e+002dB,-1.60357176988328e+001°)
1.27350308101666e+003	(-2.81342394120529e+002dB,-1.60727190548190e+001°)
1.27643880881134e+003	(-2.81101358264793e+002dB,-1.61098076908373e+001°)
1.27938130415752e+003	(-2.80860317600899e+002dB,-1.61469838183017e+001°)
1.28233058265601e+003	(-2.80619272105740e+002dB,-1.61842476483085e+001°)
1.28528665994361e+003	(-2.80378221756907e+002dB,-1.62215993928851e+001°)
1.28824955169313e+003	(-2.80137166531584e+002dB,-1.62590392646675e+001°)
1.29121927361353e+003	(-2.79896106407448e+002dB,-1.62965674785897e+001°)
1.29419584144998e+003	(-2.79655041361039e+002dB,-1.63341842473903e+001°)
1.29717927098395e+003	(-2.79413971369625e+002dB,-1.63718897852709e+001°)
1.30016957803328e+003	(-2.79172896409710e+002dB,-1.64096843077762e+001°)
1.30316677845229e+003	(-2.78931816458302e+002dB,-1.64475680310618e+001°)
1.30617088813183e+003	(-2.78690731492108e+002dB,-1.64855411711927e+001°)
1.30918192299940e+003	(-2.78449641487194e+002dB,-1.65236039444156e+001°)
1.31219989901920e+003	(-2.78208546420594e+002dB,-1.65617565689384e+001°)
1.31522483219223e+003	(-2.77967446268107e+002dB,-1.65999992621006e+001°)
1.31825673855640e+003	(-2.77726341006137e+002dB,-1.66383322428968e+001°)
1.32129563418657e+003	(-2.77485230610884e+002dB,-1.66767557308598e+001°)
1.32434153519466e+003	(-2.77244115057838e+002dB,-1.67152699447184e+001°)
1.32739445772973e+003	(-2.77002994323152e+002dB,-1.67538751061510e+001°)
1.33045441797808e+003	(-2.76761868382526e+002dB,-1.67925714350420e+001°)
1.33352143216332e+003	(-2.76520737211731e+002dB,-1.68313591542254e+001°)
1.33659551654643e+003	(-2.76279600786128e+002dB,-1.68702384844940e+001°)
1.33967668742593e+003	(-2.76038459081033e+002dB,-1.69092096499454e+001°)
1.34276496113786e+003	(-2.75797312071649e+002dB,-1.69482728729874e+001°)
1.34586035405594e+003	(-2.75556159733296e+002dB,-1.69874283775646e+001°)
1.34896288259165e+003	(-2.75315002041008e+002dB,-1.70266763890686e+001°)
1.35207256319427e+003	(-2.75073838969551e+002dB,-1.70660171326279e+001°)
1.35518941235103e+003	(-2.74832670493799e+002dB,-1.71054508332495e+001°)
1.35831344658715e+003	(-2.74591496588475e+002dB,-1.71449777186097e+001°)
1.36144468246594e+003	(-2.74350317227975e+002dB,-1.71845980144282e+001°)
1.36458313658892e+003	(-2.74109132386930e+002dB,-1.72243119495872e+001°)
1.36772882559584e+003	(-2.73867942039355e+002dB,-1.72641197520967e+001°)
1.37088176616484e+003	(-2.73626746159749e+002dB,-1.73040216497989e+001°)
1.37404197501251e+003	(-2.73385544721983e+002dB,-1.73440178740163e+001°)
1.37720946889394e+003	(-2.73144337700095e+002dB,-1.73841086536362e+001°)
1.38038426460288e+003	(-2.72903125067947e+002dB,-1.74242942199184e+001°)
1.38356637897177e+003	(-2.72661906799124e+002dB,-1.74645748046184e+001°)
1.38675582887188e+003	(-2.72420682867215e+002dB,-1.75049506389719e+001°)
1.38995263121334e+003	(-2.72179453245538e+002dB,-1.75454219563813e+001°)
1.39315680294529e+003	(-2.71938217907652e+002dB,-1.75859889899465e+001°)
1.39636836105593e+003	(-2.71696976826619e+002dB,-1.76266519740673e+001°)
1.39958732257261e+003	(-2.71455729975604e+002dB,-1.76674111427682e+001°)
1.40281370456195e+003	(-2.71214477327292e+002dB,-1.77082667318961e+001°)
1.40604752412990e+003	(-2.70973218854817e+002dB,-1.77492189769053e+001°)
1.40928879842186e+003	(-2.70731954530585e+002dB,-1.77902681148757e+001°)
1.41253754462274e+003	(-2.70490684327085e+002dB,-1.78314143824489e+001°)
1.41579377995707e+003	(-2.70249408217100e+002dB,-1.78726580177739e+001°)
1.41905752168908e+003	(-2.70008126172610e+002dB,-1.79139992598473e+001°)
1.42232878712281e+003	(-2.69766838165841e+002dB,-1.79554383472309e+001°)
1.42560759360218e+003	(-2.69525544168758e+002dB,-1.79969755199721e+001°)
1.42889395851109e+003	(-2.69284244153440e+002dB,-1.80386110185556e+001°)
1.43218789927353e+003	(-2.69042938091433e+002dB,-1.80803450838893e+001°)
1.43548943335364e+003	(-2.68801625954385e+002dB,-1.81221779591506e+001°)
1.43879857825583e+003	(-2.68560307713861e+002dB,-1.81641098856476e+001°)
1.44211535152486e+003	(-2.68318983341218e+002dB,-1.82061411068318e+001°)
1.44543977074592e+003	(-2.68077652807462e+002dB,-1.82482718666590e+001°)
1.44877185354475e+003	(-2.67836316083913e+002dB,-1.82905024093212e+001°)
1.45211161758773e+003	(-2.67594973141382e+002dB,-1.83328329801327e+001°)
1.45545908058195e+003	(-2.67353623950639e+002dB,-1.83752638261180e+001°)
1.45881426027534e+003	(-2.67112268482354e+002dB,-1.84177951922156e+001°)
1.46217717445671e+003	(-2.66870906706991e+002dB,-1.84604273268203e+001°)
1.46554784095590e+003	(-2.66629538595122e+002dB,-1.85031604774248e+001°)
1.46892627764385e+003	(-2.66388164116911e+002dB,-1.85459948930027e+001°)
1.47231250243271e+003	(-2.66146783242198e+002dB,-1.85889308222819e+001°)
1.47570653327588e+003	(-2.65905395941316e+002dB,-1.86319685162677e+001°)
1.47910838816819e+003	(-2.65664002183901e+002dB,-1.86751082254588e+001°)
1.48251808514594e+003	(-2.65422601939439e+002dB,-1.87183502006159e+001°)
1.48593564228699e+003	(-2.65181195177648e+002dB,-1.87616946948177e+001°)
1.48936107771090e+003	(-2.64939781867924e+002dB,-1.88051419602289e+001°)
1.49279440957898e+003	(-2.64698361979223e+002dB,-1.88486922507265e+001°)
1.49623565609442e+003	(-2.64456935480980e+002dB,-1.88923458204967e+001°)
1.49968483550236e+003	(-2.64215502341967e+002dB,-1.89361029246958e+001°)
1.50314196609001e+003	(-2.63974062530879e+002dB,-1.89799638187570e+001°)
1.50660706618673e+003	(-2.63732616016417e+002dB,-1.90239287596791e+001°)
1.51008015416413e+003	(-2.63491162767129e+002dB,-1.90679980037539e+001°)
1.51356124843619e+003	(-2.63249702751195e+002dB,-1.91121718097031e+001°)
1.51705036745932e+003	(-2.63008235936937e+002dB,-1.91564504358970e+001°)
1.52054752973248e+003	(-2.62766762292375e+002dB,-1.92008341412681e+001°)
1.52405275379728e+003	(-2.62525281785188e+002dB,-1.92453231861576e+001°)
1.52756605823806e+003	(-2.62283794383342e+002dB,-1.92899178316236e+001°)
1.53108746168201e+003	(-2.62042300054290e+002dB,-1.93346183387912e+001°)
1.53461698279928e+003	(-2.61800798765414e+002dB,-1.93794249704108e+001°)
1.53815464030302e+003	(-2.61559290484100e+002dB,-1.94243379887792e+001°)
1.54170045294954e+003	(-2.61317775177263e+002dB,-1.94693576585489e+001°)
1.54525443953840e+003	(-2.61076252812036e+002dB,-1.95144842434161e+001°)
1.54881661891247e+003	(-2.60834723355045e+002dB,-1.95597180095301e+001°)
1.55238700995807e+003	(-2.60593186772875e+002dB,-1.96050592220620e+001°)
1.55596563160506e+003	(-2.60351643032131e+002dB,-1.96505081482347e+001°)
1.55955250282694e+003	(-2.60110092099148e+002dB,-1.96960650556799e+001°)
1.56314764264094e+003	(-2.59868533939822e+002dB,-1.97417302121804e+001°)
1.56675107010813e+003	(-2.59626968520418e+002dB,-1.97875038872789e+001°)
1.57036280433354e+003	(-2.59385395806554e+002dB,-1.98333863508774e+001°)
1.57398286446620e+003	(-2.59143815763970e+002dB,-1.98793778733949e+001°)
1.57761126969933e+003	(-2.58902228358177e+002dB,-1.99254787262958e+001°)
1.58124803927037e+003	(-2.58660633554341e+002dB,-1.99716891813894e+001°)
1.58489319246110e+003	(-2.58419031317728e+002dB,-2.00180095114910e+001°)
1.58854674859776e+003	(-2.58177421613368e+002dB,-2.00644399912623e+001°)
1.59220872705115e+003	(-2.57935804406022e+002dB,-2.01109808944268e+001°)
1.59587914723672e+003	(-2.57694179660307e+002dB,-2.01576324965247e+001°)
1.59955802861465e+003	(-2.57452547340770e+002dB,-2.02043950734598e+001°)
1.60324539069002e+003	(-2.57210907411707e+002dB,-2.02512689021667e+001°)
1.60694125301286e+003	(-2.56969259837181e+002dB,-2.02982542606507e+001°)
1.61064563517825e+003	(-2.56727604581173e+002dB,-2.03453514266263e+001°)
1.61435855682647e+003	(-2.56485941607641e+002dB,-2.03925606802300e+001°)
1.61808003764305e+003	(-2.56244270880013e+002dB,-2.04398823009143e+001°)
1.62181009735891e+003	(-2.56002592361771e+002dB,-2.04873165698613e+001°)
1.62554875575047e+003	(-2.55760906016233e+002dB,-2.05348637684741e+001°)
1.62929603263970e+003	(-2.55519211806484e+002dB,-2.05825241794531e+001°)
1.63305194789432e+003	(-2.55277509695381e+002dB,-2.06302980863258e+001°)
1.63681652142779e+003	(-2.55035799645768e+002dB,-2.06781857729000e+001°)
1.64058977319952e+003	(-2.54794081620066e+002dB,-2.07261875244097e+001°)
1.64437172321491e+003	(-2.54552355580750e+002dB,-2.07743036265848e+001°)
1.64816239152549e+003	(-2.54310621489949e+002dB,-2.08225343660888e+001°)
1.65196179822900e+003	(-2.54068879309717e+002dB,-2.08708800300780e+001°)
1.65576996346951e+003	(-2.53827129001798e+002dB,-2.09193409068726e+001°)
1.65958690743754e+003	(-2.53585370527972e+002dB,-2.09679172862453e+001°)
1.66341265037015e+003	(-2.53343603849612e+002dB,-2.10166094573035e+001°)
1.66724721255104e+003	(-2.53101828928115e+002dB,-2.10654177117505e+001°)
1.67109061431069e+003	(-2.52860045724305e+002dB,-2.11143423406083e+001°)
1.67494287602642e+003	(-2.52618254199354e+002dB,-2.11633836365281e+001°)
1.67880401812254e+003	(-2.52376454313840e+002dB,-2.12125418930346e+001°)
1.68267406107045e+003	(-2.52134646028336e+002dB,-2.12618174045358e+001°)
1.68655302538872e+003	(-2.51892829303066e+002dB,-2.13112104656715e+001°)
1.69044093164324e+003	(-2.51651004098307e+002dB,-2.13607213725845e+001°)
1.69433780044731e+003	(-2.51409170373900e+002dB,-2.14103504221916e+001°)
1.69824365246172e+003	(-2.51167328089696e+002dB,-2.14600979123415e+001°)
1.70215850839493e+003	(-2.50925477205219e+002dB,-2.15099641413935e+001°)
1.70608238900310e+003	(-2.50683617679810e+002dB,-2.15599494090038e+001°)
1.71001531509027e+003	(-2.50441749472653e+002dB,-2.16100540154461e+001°)
1.71395730750840e+003	(-2.50199872542778e+002dB,-2.16602782618157e+001°)
1.71790838715757e+003	(-2.49957986848884e+002dB,-2.17106224502011e+001°)
1.72186857498598e+003	(-2.49716092349498e+002dB,-2.17610868838377e+001°)
1.72583789199018e+003	(-2.49474189003061e+002dB,-2.18116718666363e+001°)
1.72981635921508e+003	(-2.49232276767782e+002dB,-2.18623777034407e+001°)
1.73380399775412e+003	(-2.48990355601616e+002dB,-2.19132046998896e+001°)
1.73780082874935e+003	(-2.48748425462259e+002dB,-2.19641531623941e+001°)
1.74180687339159e+003	(-2.48506486307339e+002dB,-2.20152233985797e+001°)
1.74582215292048e+003	(-2.48264538094189e+002dB,-2.20664157172637e+001°)
1.74984668862463e+003	(-2.48022580780005e+002dB,-2.21177304273312e+001°)
1.75388050184174e+003	(-2.47780614321701e+002dB,-2.21691678396745e+001°)
1.75792361395867e+003	(-2.47538638675907e+002dB,-2.22207282646926e+001°)
1.76197604641161e+003	(-2.47296653799290e+002dB,-2.22724120153183e+001°)
1.76603782068614e+003	(-2.47054659648102e+002dB,-2.23242194038619e+001°)
1.77010895831740e+003	(-2.46812656178548e+002dB,-2.23761507448071e+001°)
1.77418948089014e+003	(-2.46570643346388e+002dB,-2.24282063532899e+001°)
1.77827941003890e+003	(-2.46328621107329e+002dB,-2.24803865448317e+001°)
1.78237876744807e+003	(-2.46086589416869e+002dB,-2.25326916365189e+001°)
1.78648757485203e+003	(-2.45844548230176e+002dB,-2.25851219457124e+001°)
1.79060585403527e+003	(-2.45602497502441e+002dB,-2.26376777917752e+001°)
1.79473362683250e+003	(-2.45360437188319e+002dB,-2.26903594938119e+001°)
1.79887091512876e+003	(-2.45118367242410e+002dB,-2.27431673729235e+001°)
1.80301774085954e+003	(-2.44876287619182e+002dB,-2.27961017506364e+001°)
1.80717412601090e+003	(-2.44634198272678e+002dB,-2.28491629493488e+001°)
1.81134009261958e+003	(-2.44392099156917e+002dB,-2.29023512931121e+001°)
1.81551566277311e+003	(-2.44149990225527e+002dB,-2.29556671060219e+001°)
1.81970085860996e+003	(-2.43907871432008e+002dB,-2.30091107137061e+001°)
1.82389570231961e+003	(-2.43665742729677e+002dB,-2.30626824428985e+001°)
1.82810021614272e+003	(-2.43423604071508e+002dB,-2.31163826209737e+001°)
1.83231442237119e+003	(-2.43181455410255e+002dB,-2.31702115763580e+001°)
1.83653834334832e+003	(-2.42939296698533e+002dB,-2.32241696385235e+001°)
1.84077200146893e+003	(-2.42697127888638e+002dB,-2.32782571386488e+001°)
1.84501541917945e+003	(-2.42454948932694e+002dB,-2.33324744072814e+001°)
1.84926861897805e+003	(-2.42212759782636e+002dB,-2.33868217776741e+001°)
1.85353162341478e+003	(-2.41970560389999e+002dB,-2.34412995828617e+001°)
1.85780445509167e+003	(-2.41728350706227e+002dB,-2.34959081577869e+001°)
1.86208713666284e+003	(-2.41486130682543e+002dB,-2.35506478377437e+001°)
1.86637969083464e+003	(-2.41243900269758e+002dB,-2.36055189597420e+001°)
1.87068214036577e+003	(-2.41001659418609e+002dB,-2.36605218609003e+001°)
