Freq.	V(n011)
1.00000000000000e+003	(-2.36344691101922e+002dB,1.70578963223213e+002°)
1.00230523807790e+003	(-2.36144027099648e+002dB,1.70557367525362e+002°)
1.00461579027840e+003	(-2.35943360026991e+002dB,1.70535720743980e+002°)
1.00693166885180e+003	(-2.35742689870004e+002dB,1.70514022756883e+002°)
1.00925288607668e+003	(-2.35542016614101e+002dB,1.70492273441390e+002°)
1.01157945425990e+003	(-2.35341340244868e+002dB,1.70470472675233e+002°)
1.01391138573668e+003	(-2.35140660747950e+002dB,1.70448620335936e+002°)
1.01624869287070e+003	(-2.34939978108552e+002dB,1.70426716299766e+002°)
1.01859138805412e+003	(-2.34739292312213e+002dB,1.70404760444304e+002°)
1.02093948370768e+003	(-2.34538603343914e+002dB,1.70382752643933e+002°)
1.02329299228075e+003	(-2.34337911189117e+002dB,1.70360692775521e+002°)
1.02565192625141e+003	(-2.34137215833014e+002dB,1.70338580714480e+002°)
1.02801629812647e+003	(-2.33936517260550e+002dB,1.70316416336486e+002°)
1.03038612044162e+003	(-2.33735815456582e+002dB,1.70294199515188e+002°)
1.03276140576140e+003	(-2.33535110406505e+002dB,1.70271930126723e+002°)
1.03514216667934e+003	(-2.33334402094694e+002dB,1.70249608043832e+002°)
1.03752841581801e+003	(-2.33133690506245e+002dB,1.70227233140857e+002°)
1.03992016582906e+003	(-2.32932975625712e+002dB,1.70204805291543e+002°)
1.04231742939330e+003	(-2.32732257437945e+002dB,1.70182324369059e+002°)
1.04472021922080e+003	(-2.32531535927333e+002dB,1.70159790246104e+002°)
1.04712854805090e+003	(-2.32330811078477e+002dB,1.70137202795384e+002°)
1.04954242865232e+003	(-2.32130082875678e+002dB,1.70114561888088e+002°)
1.05196187382322e+003	(-2.31929351303461e+002dB,1.70091867397112e+002°)
1.05438689639126e+003	(-2.31728616346079e+002dB,1.70069119194164e+002°)
1.05681750921366e+003	(-2.31527877987623e+002dB,1.70046317149387e+002°)
1.05925372517729e+003	(-2.31327136212529e+002dB,1.70023461135010e+002°)
1.06169555719872e+003	(-2.31126391004586e+002dB,1.70000551019475e+002°)
1.06414301822431e+003	(-2.30925642347848e+002dB,1.69977586674398e+002°)
1.06659612123026e+003	(-2.30724890226232e+002dB,1.69954567969289e+002°)
1.06905487922266e+003	(-2.30524134623615e+002dB,1.69931494773027e+002°)
1.07151930523761e+003	(-2.30323375523760e+002dB,1.69908366955044e+002°)
1.07398941234124e+003	(-2.30122612910271e+002dB,1.69885184384696e+002°)
1.07646521362983e+003	(-2.29921846766816e+002dB,1.69861946929366e+002°)
1.07894672222983e+003	(-2.29721077076970e+002dB,1.69838654457492e+002°)
1.08143395129794e+003	(-2.29520303824264e+002dB,1.69815306836684e+002°)
1.08392691402120e+003	(-2.29319526991929e+002dB,1.69791903934260e+002°)
1.08642562361706e+003	(-2.29118746563288e+002dB,1.69768445616895e+002°)
1.08893009333343e+003	(-2.28917962521519e+002dB,1.69744931751497e+002°)
1.09144033644875e+003	(-2.28717174850038e+002dB,1.69721362204656e+002°)
1.09395636627209e+003	(-2.28516383531653e+002dB,1.69697736842122e+002°)
1.09647819614318e+003	(-2.28315588549394e+002dB,1.69674055528619e+002°)
1.09900583943252e+003	(-2.28114789886157e+002dB,1.69650318129877e+002°)
1.10153930954141e+003	(-2.27913987524839e+002dB,1.69626524510863e+002°)
1.10407861990207e+003	(-2.27713181448172e+002dB,1.69602674535375e+002°)
1.10662378397766e+003	(-2.27512371638712e+002dB,1.69578768068456e+002°)
1.10917481526240e+003	(-2.27311558079236e+002dB,1.69554804972968e+002°)
1.11173172728159e+003	(-2.27110740752087e+002dB,1.69530785112278e+002°)
1.11429453359173e+003	(-2.26909919639787e+002dB,1.69506708350258e+002°)
1.11686324778056e+003	(-2.26709094724626e+002dB,1.69482574548381e+002°)
1.11943788346715e+003	(-2.26508265988773e+002dB,1.69458383569044e+002°)
1.12201845430196e+003	(-2.26307433414625e+002dB,1.69434135275098e+002°)
1.12460497396692e+003	(-2.26106596983988e+002dB,1.69409829526941e+002°)
1.12719745617551e+003	(-2.25905756679097e+002dB,1.69385466185912e+002°)
1.12979591467279e+003	(-2.25704912481779e+002dB,1.69361045113139e+002°)
1.13240036323555e+003	(-2.25504064373841e+002dB,1.69336566168618e+002°)
1.13501081567231e+003	(-2.25303212337128e+002dB,1.69312029212372e+002°)
1.13762728582343e+003	(-2.25102356353199e+002dB,1.69287434104043e+002°)
1.14024978756117e+003	(-2.24901496403663e+002dB,1.69262780702927e+002°)
1.14287833478977e+003	(-2.24700632470049e+002dB,1.69238068867935e+002°)
1.14551294144553e+003	(-2.24499764533677e+002dB,1.69213298456907e+002°)
1.14815362149688e+003	(-2.24298892575944e+002dB,1.69188469328260e+002°)
1.15080038894443e+003	(-2.24098016577980e+002dB,1.69163581339944e+002°)
1.15345325782109e+003	(-2.23897136520974e+002dB,1.69138634348791e+002°)
1.15611224219210e+003	(-2.23696252386068e+002dB,1.69113628212132e+002°)
1.15877735615512e+003	(-2.23495364154219e+002dB,1.69088562786719e+002°)
1.16144861384034e+003	(-2.23294471806143e+002dB,1.69063437927747e+002°)
1.16412602941049e+003	(-2.23093575322675e+002dB,1.69038253491400e+002°)
1.16680961706096e+003	(-2.22892674684598e+002dB,1.69013009332911e+002°)
1.16949939101987e+003	(-2.22691769872313e+002dB,1.68987705307499e+002°)
1.17219536554813e+003	(-2.22490860866624e+002dB,1.68962341269784e+002°)
1.17489755493953e+003	(-2.22289947647742e+002dB,1.68936917073312e+002°)
1.17760597352080e+003	(-2.22089030196076e+002dB,1.68911432572772e+002°)
1.18032063565173e+003	(-2.21888108491768e+002dB,1.68885887620399e+002°)
1.18304155572516e+003	(-2.21687182515047e+002dB,1.68860282069782e+002°)
1.18576874816716e+003	(-2.21486252245908e+002dB,1.68834615773407e+002°)
1.18850222743701e+003	(-2.21285317664340e+002dB,1.68808888583067e+002°)
1.19124200802737e+003	(-2.21084378750223e+002dB,1.68783100351249e+002°)
1.19398810446427e+003	(-2.20883435483189e+002dB,1.68757250928535e+002°)
1.19674053130724e+003	(-2.20682487843032e+002dB,1.68731340165830e+002°)
1.19949930314937e+003	(-2.20481535809311e+002dB,1.68705367914520e+002°)
1.20226443461741e+003	(-2.20280579361453e+002dB,1.68679334023350e+002°)
1.20503594037179e+003	(-2.20079618478875e+002dB,1.68653238343521e+002°)
1.20781383510678e+003	(-2.19878653140820e+002dB,1.68627080723054e+002°)
1.21059813355048e+003	(-2.19677683326491e+002dB,1.68600861011001e+002°)
1.21338885046497e+003	(-2.19476709015012e+002dB,1.68574579056062e+002°)
1.21618600064636e+003	(-2.19275730185340e+002dB,1.68548234706538e+002°)
1.21898959892486e+003	(-2.19074746816360e+002dB,1.68521827809673e+002°)
1.22179966016487e+003	(-2.18873758886755e+002dB,1.68495358212234e+002°)
1.22461619926504e+003	(-2.18672766375394e+002dB,1.68468825761856e+002°)
1.22743923115840e+003	(-2.18471769260817e+002dB,1.68442230304411e+002°)
1.23026877081238e+003	(-2.18270767521434e+002dB,1.68415571685311e+002°)
1.23310483322890e+003	(-2.18069761135728e+002dB,1.68388849750917e+002°)
1.23594743344450e+003	(-2.17868750081887e+002dB,1.68362064345785e+002°)
1.23879658653036e+003	(-2.17667734338111e+002dB,1.68335215314364e+002°)
1.24165230759241e+003	(-2.17466713882568e+002dB,1.68308302501770e+002°)
1.24451461177138e+003	(-2.17265688693134e+002dB,1.68281325750431e+002°)
1.24738351424294e+003	(-2.17064658747699e+002dB,1.68254284904358e+002°)
1.25025903021771e+003	(-2.16863624024065e+002dB,1.68227179806384e+002°)
1.25314117494141e+003	(-2.16662584499837e+002dB,1.68200010298721e+002°)
1.25602996369487e+003	(-2.16461540152614e+002dB,1.68172776223836e+002°)
1.25892541179416e+003	(-2.16260490959839e+002dB,1.68145477422697e+002°)
1.26182753459066e+003	(-2.16059436898857e+002dB,1.68118113737119e+002°)
1.26473634747115e+003	(-2.15858377946863e+002dB,1.68090685007078e+002°)
1.26765186585784e+003	(-2.15657314081064e+002dB,1.68063191073364e+002°)
1.27057410520854e+003	(-2.15456245278411e+002dB,1.68035631775378e+002°)
1.27350308101666e+003	(-2.15255171515857e+002dB,1.68008006952645e+002°)
1.27643880881134e+003	(-2.15054092770110e+002dB,1.67980316443873e+002°)
1.27938130415752e+003	(-2.14853009018017e+002dB,1.67952560087792e+002°)
1.28233058265601e+003	(-2.14651920236066e+002dB,1.67924737722126e+002°)
1.28528665994361e+003	(-2.14450826400747e+002dB,1.67896849184507e+002°)
1.28824955169313e+003	(-2.14249727488374e+002dB,1.67868894311712e+002°)
1.29121927361353e+003	(-2.14048623475250e+002dB,1.67840872940394e+002°)
1.29419584144998e+003	(-2.13847514337543e+002dB,1.67812784907254e+002°)
1.29717927098395e+003	(-2.13646400051153e+002dB,1.67784630047433e+002°)
1.30016957803328e+003	(-2.13445280592156e+002dB,1.67756408196673e+002°)
1.30316677845229e+003	(-2.13244155936242e+002dB,1.67728119189196e+002°)
1.30617088813183e+003	(-2.13043026059087e+002dB,1.67699762859226e+002°)
1.30918192299940e+003	(-2.12841890936299e+002dB,1.67671339041147e+002°)
1.31219989901920e+003	(-2.12640750543297e+002dB,1.67642847567931e+002°)
1.31522483219223e+003	(-2.12439604855469e+002dB,1.67614288272663e+002°)
1.31825673855640e+003	(-2.12238453847937e+002dB,1.67585660987352e+002°)
1.32129563418657e+003	(-2.12037297495861e+002dB,1.67556965544245e+002°)
1.32434153519466e+003	(-2.11836135774266e+002dB,1.67528201775033e+002°)
1.32739445772973e+003	(-2.11634968657949e+002dB,1.67499369510052e+002°)
1.33045441797808e+003	(-2.11433796121678e+002dB,1.67470468580503e+002°)
1.33352143216332e+003	(-2.11232618140041e+002dB,1.67441498815727e+002°)
1.33659551654643e+003	(-2.11031434687633e+002dB,1.67412460046136e+002°)
1.33967668742593e+003	(-2.10830245738749e+002dB,1.67383352099629e+002°)
1.34276496113786e+003	(-2.10629051267707e+002dB,1.67354174805779e+002°)
1.34586035405594e+003	(-2.10427851248628e+002dB,1.67324927992190e+002°)
1.34896288259165e+003	(-2.10226645655508e+002dB,1.67295611486595e+002°)
1.35207256319427e+003	(-2.10025434462305e+002dB,1.67266225115846e+002°)
1.35518941235103e+003	(-2.09824217642703e+002dB,1.67236768706751e+002°)
1.35831344658715e+003	(-2.09622995170412e+002dB,1.67207242085490e+002°)
1.36144468246594e+003	(-2.09421767018953e+002dB,1.67177645077577e+002°)
1.36458313658892e+003	(-2.09220533161696e+002dB,1.67147977507901e+002°)
1.36772882559584e+003	(-2.09019293571892e+002dB,1.67118239201219e+002°)
1.37088176616484e+003	(-2.08818048222712e+002dB,1.67088429981809e+002°)
1.37404197501251e+003	(-2.08616797087194e+002dB,1.67058549672999e+002°)
1.37720946889394e+003	(-2.08415540138191e+002dB,1.67028598097923e+002°)
1.38038426460288e+003	(-2.08214277348511e+002dB,1.66998575079312e+002°)
1.38356637897177e+003	(-2.08013008690691e+002dB,1.66968480439131e+002°)
1.38675582887188e+003	(-2.07811734137322e+002dB,1.66938313998998e+002°)
1.38995263121334e+003	(-2.07610453660716e+002dB,1.66908075579901e+002°)
1.39315680294529e+003	(-2.07409167233145e+002dB,1.66877765002234e+002°)
1.39636836105593e+003	(-2.07207874826699e+002dB,1.66847382086171e+002°)
1.39958732257261e+003	(-2.07006576413346e+002dB,1.66816926651181e+002°)
1.40281370456195e+003	(-2.06805271964947e+002dB,1.66786398516317e+002°)
1.40604752412990e+003	(-2.06603961453193e+002dB,1.66755797499861e+002°)
1.40928879842186e+003	(-2.06402644849648e+002dB,1.66725123419702e+002°)
1.41253754462274e+003	(-2.06201322125751e+002dB,1.66694376093266e+002°)
1.41579377995707e+003	(-2.05999993252838e+002dB,1.66663555337559e+002°)
1.41905752168908e+003	(-2.05798658202011e+002dB,1.66632660968666e+002°)
1.42232878712281e+003	(-2.05597316944352e+002dB,1.66601692802509e+002°)
1.42560759360218e+003	(-2.05395969450727e+002dB,1.66570650654412e+002°)
1.42889395851109e+003	(-2.05194615691892e+002dB,1.66539534338862e+002°)
1.43218789927353e+003	(-2.04993255638472e+002dB,1.66508343670436e+002°)
1.43548943335364e+003	(-2.04791889260893e+002dB,1.66477078462114e+002°)
1.43879857825583e+003	(-2.04590516529521e+002dB,1.66445738527484e+002°)
1.44211535152486e+003	(-2.04389137414556e+002dB,1.66414323679132e+002°)
1.44543977074592e+003	(-2.04187751886014e+002dB,1.66382833728636e+002°)
1.44877185354475e+003	(-2.03986359913855e+002dB,1.66351268487887e+002°)
1.45211161758773e+003	(-2.03784961467803e+002dB,1.66319627767809e+002°)
1.45545908058195e+003	(-2.03583556517446e+002dB,1.66287911378125e+002°)
1.45881426027534e+003	(-2.03382145032309e+002dB,1.66256119129107e+002°)
1.46217717445671e+003	(-2.03180726981691e+002dB,1.66224250829902e+002°)
1.46554784095590e+003	(-2.02979302334811e+002dB,1.66192306289270e+002°)
1.46892627764385e+003	(-2.02777871060624e+002dB,1.66160285314884e+002°)
1.47231250243271e+003	(-2.02576433128134e+002dB,1.66128187714932e+002°)
1.47570653327588e+003	(-2.02374988505974e+002dB,1.66096013295770e+002°)
1.47910838816819e+003	(-2.02173537162800e+002dB,1.66063761863989e+002°)
1.48251808514594e+003	(-2.01972079067047e+002dB,1.66031433225790e+002°)
1.48593564228699e+003	(-2.01770614186944e+002dB,1.65999027185737e+002°)
1.48936107771090e+003	(-2.01569142490719e+002dB,1.65966543549073e+002°)
1.49279440957898e+003	(-2.01367663946283e+002dB,1.65933982119545e+002°)
1.49623565609442e+003	(-2.01166178521508e+002dB,1.65901342700795e+002°)
1.49968483550236e+003	(-2.00964686184080e+002dB,1.65868625095863e+002°)
1.50314196609001e+003	(-2.00763186901507e+002dB,1.65835829106886e+002°)
1.50660706618673e+003	(-2.00561680641141e+002dB,1.65802954535682e+002°)
1.51008015416413e+003	(-2.00360167370259e+002dB,1.65770001183603e+002°)
1.51356124843619e+003	(-2.00158647055858e+002dB,1.65736968850996e+002°)
1.51705036745932e+003	(-1.99957119664870e+002dB,1.65703857337821e+002°)
1.52054752973248e+003	(-1.99755585164056e+002dB,1.65670666443686e+002°)
1.52405275379728e+003	(-1.99554043519951e+002dB,1.65637395967156e+002°)
1.52756605823806e+003	(-1.99352494699011e+002dB,1.65604045706619e+002°)
1.53108746168201e+003	(-1.99150938667481e+002dB,1.65570615459362e+002°)
1.53461698279928e+003	(-1.98949375391488e+002dB,1.65537105022564e+002°)
1.53815464030302e+003	(-1.98747804836977e+002dB,1.65503514192648e+002°)
1.54170045294954e+003	(-1.98546226969714e+002dB,1.65469842765317e+002°)
1.54525443953840e+003	(-1.98344641755297e+002dB,1.65436090535554e+002°)
1.54881661891247e+003	(-1.98143049159184e+002dB,1.65402257298008e+002°)
1.55238700995807e+003	(-1.97941449146681e+002dB,1.65368342846598e+002°)
1.55596563160506e+003	(-1.97739841682899e+002dB,1.65334346974576e+002°)
1.55955250282694e+003	(-1.97538226732769e+002dB,1.65300269474527e+002°)
1.56314764264094e+003	(-1.97336604261076e+002dB,1.65266110138601e+002°)
1.56675107010813e+003	(-1.97134974232472e+002dB,1.65231868758258e+002°)
1.57036280433354e+003	(-1.96933336611365e+002dB,1.65197545124071e+002°)
1.57398286446620e+003	(-1.96731691362053e+002dB,1.65163139026320e+002°)
1.57761126969933e+003	(-1.96530038448620e+002dB,1.65128650254315e+002°)
1.58124803927037e+003	(-1.96328377835028e+002dB,1.65094078597369e+002°)
1.58489319246110e+003	(-1.96126709485018e+002dB,1.65059423843391e+002°)
1.58854674859776e+003	(-1.95925033362161e+002dB,1.65024685779786e+002°)
1.59220872705115e+003	(-1.95723349429891e+002dB,1.64989864193832e+002°)
1.59587914723672e+003	(-1.95521657651444e+002dB,1.64954958871649e+002°)
1.59955802861465e+003	(-1.95319957989879e+002dB,1.64919969598998e+002°)
1.60324539069002e+003	(-1.95118250408058e+002dB,1.64884896160682e+002°)
1.60694125301286e+003	(-1.94916534868706e+002dB,1.64849738341062e+002°)
1.61064563517825e+003	(-1.94714811334361e+002dB,1.64814495924019e+002°)
1.61435855682647e+003	(-1.94513079767339e+002dB,1.64779168692259e+002°)
1.61808003764305e+003	(-1.94311340129809e+002dB,1.64743756428271e+002°)
1.62181009735891e+003	(-1.94109592383787e+002dB,1.64708258913754e+002°)
1.62554875575047e+003	(-1.93907836491031e+002dB,1.64672675929628e+002°)
1.62929603263970e+003	(-1.93706072413189e+002dB,1.64637007256255e+002°)
1.63305194789432e+003	(-1.93504300111672e+002dB,1.64601252673258e+002°)
1.63681652142779e+003	(-1.93302519547758e+002dB,1.64565411959685e+002°)
1.64058977319952e+003	(-1.93100730682490e+002dB,1.64529484893826e+002°)
1.64437172321491e+003	(-1.92898933476730e+002dB,1.64493471253095e+002°)
1.64816239152549e+003	(-1.92697127891186e+002dB,1.64457370814667e+002°)
1.65196179822900e+003	(-1.92495313886353e+002dB,1.64421183354594e+002°)
1.65576996346951e+003	(-1.92293491422524e+002dB,1.64384908648535e+002°)
1.65958690743754e+003	(-1.92091660459839e+002dB,1.64348546471257e+002°)
1.66341265037015e+003	(-1.91889820958215e+002dB,1.64312096597005e+002°)
1.66724721255104e+003	(-1.91687972877374e+002dB,1.64275558799043e+002°)
1.67109061431069e+003	(-1.91486116176851e+002dB,1.64238932850146e+002°)
1.67494287602642e+003	(-1.91284250816011e+002dB,1.64202218522468e+002°)
1.67880401812254e+003	(-1.91082376753995e+002dB,1.64165415587342e+002°)
1.68267406107045e+003	(-1.90880493949731e+002dB,1.64128523815086e+002°)
1.68655302538872e+003	(-1.90678602362006e+002dB,1.64091542975910e+002°)
1.69044093164324e+003	(-1.90476701949366e+002dB,1.64054472838924e+002°)
1.69433780044731e+003	(-1.90274792670152e+002dB,1.64017313172487e+002°)
1.69824365246172e+003	(-1.90072874482531e+002dB,1.63980063744337e+002°)
1.70215850839493e+003	(-1.89870947344451e+002dB,1.63942724321480e+002°)
1.70608238900310e+003	(-1.89669011213678e+002dB,1.63905294670213e+002°)
1.71001531509027e+003	(-1.89467066047732e+002dB,1.63867774555983e+002°)
1.71395730750840e+003	(-1.89265111803973e+002dB,1.63830163743640e+002°)
1.71790838715757e+003	(-1.89063148439538e+002dB,1.63792461997290e+002°)
1.72186857498598e+003	(-1.88861175911354e+002dB,1.63754669080149e+002°)
1.72583789199018e+003	(-1.88659194176131e+002dB,1.63716784754800e+002°)
1.72981635921508e+003	(-1.88457203190394e+002dB,1.63678808783045e+002°)
1.73380399775412e+003	(-1.88255202910446e+002dB,1.63640740925886e+002°)
1.73780082874935e+003	(-1.88053193292382e+002dB,1.63602580943793e+002°)
1.74180687339159e+003	(-1.87851174292069e+002dB,1.63564328596143e+002°)
1.74582215292048e+003	(-1.87649145865182e+002dB,1.63525983641742e+002°)
1.74984668862463e+003	(-1.87447107967180e+002dB,1.63487545838713e+002°)
1.75388050184174e+003	(-1.87245060553281e+002dB,1.63449014944014e+002°)
1.75792361395867e+003	(-1.87043003578526e+002dB,1.63410390714422e+002°)
1.76197604641161e+003	(-1.86840936997709e+002dB,1.63371672905470e+002°)
1.76603782068614e+003	(-1.86638860765420e+002dB,1.63332861272093e+002°)
1.77010895831740e+003	(-1.86436774836024e+002dB,1.63293955568484e+002°)
1.77418948089014e+003	(-1.86234679163656e+002dB,1.63254955547768e+002°)
1.77827941003890e+003	(-1.86032573702241e+002dB,1.63215860962674e+002°)
1.78237876744807e+003	(-1.85830458405486e+002dB,1.63176671564910e+002°)
1.78648757485203e+003	(-1.85628333226867e+002dB,1.63137387105488e+002°)
1.79060585403527e+003	(-1.85426198119630e+002dB,1.63098007334449e+002°)
1.79473362683250e+003	(-1.85224053036800e+002dB,1.63058532001285e+002°)
1.79887091512876e+003	(-1.85021897931174e+002dB,1.63018960854407e+002°)
1.80301774085954e+003	(-1.84819732755325e+002dB,1.62979293641682e+002°)
1.80717412601090e+003	(-1.84617557461576e+002dB,1.62939530109889e+002°)
1.81134009261958e+003	(-1.84415372002043e+002dB,1.62899670005180e+002°)
1.81551566277311e+003	(-1.84213176328603e+002dB,1.62859713072885e+002°)
1.81970085860996e+003	(-1.84010970392890e+002dB,1.62819659057384e+002°)
1.82389570231961e+003	(-1.83808754146318e+002dB,1.62779507702337e+002°)
1.82810021614272e+003	(-1.83606527540066e+002dB,1.62739258750622e+002°)
1.83231442237119e+003	(-1.83404290525050e+002dB,1.62698911944040e+002°)
1.83653834334832e+003	(-1.83202043051977e+002dB,1.62658467023828e+002°)
1.84077200146893e+003	(-1.82999785071289e+002dB,1.62617923730091e+002°)
1.84501541917945e+003	(-1.82797516533218e+002dB,1.62577281802419e+002°)
1.84926861897805e+003	(-1.82595237387724e+002dB,1.62536540979289e+002°)
1.85353162341478e+003	(-1.82392947584567e+002dB,1.62495700998564e+002°)
1.85780445509167e+003	(-1.82190647073193e+002dB,1.62454761596852e+002°)
1.86208713666284e+003	(-1.81988335802879e+002dB,1.62413722510376e+002°)
1.86637969083464e+003	(-1.81786013722584e+002dB,1.62372583474027e+002°)
1.87068214036577e+003	(-1.81583680781093e+002dB,1.62331344222310e+002°)
1.87499450806739e+003	(-1.81381336926878e+002dB,1.62290004488499e+002°)
1.87931681680324e+003	(-1.81178982108197e+002dB,1.62248564005089e+002°)
1.88364908948977e+003	(-1.80976616273037e+002dB,1.62207022503677e+002°)
1.88799134909627e+003	(-1.80774239369140e+002dB,1.62165379715045e+002°)
