Freq.	V(vhp2)
1.00000000000000e+003	(-8.58351225531211e+001dB,-1.85983269366710e+000°)
1.00230523807790e+003	(-8.57546777068527e+001dB,-1.86394205000722e+000°)
1.00461579027840e+003	(-8.56742308028123e+001dB,-1.86806169274434e+000°)
1.00693166885180e+003	(-8.55937818313671e+001dB,-1.87219164654446e+000°)
1.00925288607668e+003	(-8.55133307828427e+001dB,-1.87633193615538e+000°)
1.01157945425990e+003	(-8.54328776475175e+001dB,-1.88048258639977e+000°)
1.01391138573668e+003	(-8.53524224156233e+001dB,-1.88464362217407e+000°)
1.01624869287070e+003	(-8.52719650773529e+001dB,-1.88881506844705e+000°)
1.01859138805412e+003	(-8.51915056228364e+001dB,-1.89299695026399e+000°)
1.02093948370768e+003	(-8.51110440421812e+001dB,-1.89718929275528e+000°)
1.02329299228075e+003	(-8.50305803254301e+001dB,-1.90139212112925e+000°)
1.02565192625141e+003	(-8.49501144625850e+001dB,-1.90560546065155e+000°)
1.02801629812647e+003	(-8.48696464436001e+001dB,-1.90982933668025e+000°)
1.03038612044162e+003	(-8.47891762583847e+001dB,-1.91406377464315e+000°)
1.03276140576140e+003	(-8.47087038967945e+001dB,-1.91830880005145e+000°)
1.03514216667934e+003	(-8.46282293486453e+001dB,-1.92256443848962e+000°)
1.03752841581801e+003	(-8.45477526036972e+001dB,-1.92683071562298e+000°)
1.03992016582906e+003	(-8.44672736516696e+001dB,-1.93110765719632e+000°)
1.04231742939330e+003	(-8.43867924822288e+001dB,-1.93539528902905e+000°)
1.04472021922080e+003	(-8.43063090849917e+001dB,-1.93969363701970e+000°)
1.04712854805090e+003	(-8.42258234495326e+001dB,-1.94400272714192e+000°)
1.04954242865232e+003	(-8.41453355653677e+001dB,-1.94832258547434e+000°)
1.05196187382322e+003	(-8.40648454219698e+001dB,-1.95265323813197e+000°)
1.05438689639126e+003	(-8.39843530087607e+001dB,-1.95699471135005e+000°)
1.05681750921366e+003	(-8.39038583151128e+001dB,-1.96134703141816e+000°)
1.05925372517729e+003	(-8.38233613303457e+001dB,-1.96571022472101e+000°)
1.06169555719872e+003	(-8.37428620437336e+001dB,-1.97008431771722e+000°)
1.06414301822431e+003	(-8.36623604444977e+001dB,-1.97446933695534e+000°)
1.06659612123026e+003	(-8.35818565218059e+001dB,-1.97886530904585e+000°)
1.06905487922266e+003	(-8.35013502647786e+001dB,-1.98327226071219e+000°)
1.07151930523761e+003	(-8.34208416624836e+001dB,-1.98769021872332e+000°)
1.07398941234124e+003	(-8.33403307039329e+001dB,-1.99211920996895e+000°)
1.07646521362983e+003	(-8.32598173780975e+001dB,-1.99655926138072e+000°)
1.07894672222983e+003	(-8.31793016738856e+001dB,-2.00101040001847e+000°)
1.08143395129794e+003	(-8.30987835801577e+001dB,-2.00547265297984e+000°)
1.08392691402120e+003	(-8.30182630857202e+001dB,-2.00994604748410e+000°)
1.08642562361706e+003	(-8.29377401793314e+001dB,-2.01443061081935e+000°)
1.08893009333343e+003	(-8.28572148496878e+001dB,-2.01892637034826e+000°)
1.09144033644875e+003	(-8.27766870854393e+001dB,-2.02343335353238e+000°)
1.09395636627209e+003	(-8.26961568751818e+001dB,-2.02795158792262e+000°)
1.09647819614318e+003	(-8.26156242074549e+001dB,-2.03248110114064e+000°)
1.09900583943252e+003	(-8.25350890707473e+001dB,-2.03702192089223e+000°)
1.10153930954141e+003	(-8.24545514534866e+001dB,-2.04157407499043e+000°)
1.10407861990207e+003	(-8.23740113440540e+001dB,-2.04613759131475e+000°)
1.10662378397766e+003	(-8.22934687307708e+001dB,-2.05071249784709e+000°)
1.10917481526240e+003	(-8.22129236019026e+001dB,-2.05529882263381e+000°)
1.11173172728159e+003	(-8.21323759456644e+001dB,-2.05989659383089e+000°)
1.11429453359173e+003	(-8.20518257502126e+001dB,-2.06450583967256e+000°)
1.11686324778056e+003	(-8.19712730036445e+001dB,-2.06912658848835e+000°)
1.11943788346715e+003	(-8.18907176940059e+001dB,-2.07375886868398e+000°)
1.12201845430196e+003	(-8.18101598092823e+001dB,-2.07840270875883e+000°)
1.12460497396692e+003	(-8.17295993374083e+001dB,-2.08305813731224e+000°)
1.12719745617551e+003	(-8.16490362662539e+001dB,-2.08772518302044e+000°)
1.12979591467279e+003	(-8.15684705836374e+001dB,-2.09240387464991e+000°)
1.13240036323555e+003	(-8.14879022773163e+001dB,-2.09709424106340e+000°)
1.13501081567231e+003	(-8.14073313349888e+001dB,-2.10179631120756e+000°)
1.13762728582343e+003	(-8.13267577443015e+001dB,-2.10651011414132e+000°)
1.14024978756117e+003	(-8.12461814928349e+001dB,-2.11123567897671e+000°)
1.14287833478977e+003	(-8.11656025681181e+001dB,-2.11597303494803e+000°)
1.14551294144553e+003	(-8.10850209576129e+001dB,-2.12072221137596e+000°)
1.14815362149688e+003	(-8.10044366487297e+001dB,-2.12548323766744e+000°)
1.15080038894443e+003	(-8.09238496288134e+001dB,-2.13025614331930e+000°)
1.15345325782109e+003	(-8.08432598851513e+001dB,-2.13504095793743e+000°)
1.15611224219210e+003	(-8.07626674049696e+001dB,-2.13983771120805e+000°)
1.15877735615512e+003	(-8.06820721754350e+001dB,-2.14464643290901e+000°)
1.16144861384034e+003	(-8.06014741836545e+001dB,-2.14946715291570e+000°)
1.16412602941049e+003	(-8.05208734166719e+001dB,-2.15429990121836e+000°)
1.16680961706096e+003	(-8.04402698614695e+001dB,-2.15914470786859e+000°)
1.16949939101987e+003	(-8.03596635049711e+001dB,-2.16400160303397e+000°)
1.17219536554813e+003	(-8.02790543340304e+001dB,-2.16887061696576e+000°)
1.17489755493953e+003	(-8.01984423354499e+001dB,-2.17375178002958e+000°)
1.17760597352080e+003	(-8.01178274959613e+001dB,-2.17864512267716e+000°)
1.18032063565173e+003	(-8.00372098022375e+001dB,-2.18355067544867e+000°)
1.18304155572516e+003	(-7.99565892408862e+001dB,-2.18846846899719e+000°)
1.18576874816716e+003	(-7.98759657984522e+001dB,-2.19339853406530e+000°)
1.18850222743701e+003	(-7.97953394614167e+001dB,-2.19834090149259e+000°)
1.19124200802737e+003	(-7.97147102161929e+001dB,-2.20329560223020e+000°)
1.19398810446427e+003	(-7.96340780491392e+001dB,-2.20826266730347e+000°)
1.19674053130724e+003	(-7.95534429465392e+001dB,-2.21324212786024e+000°)
1.19949930314937e+003	(-7.94728048946127e+001dB,-2.21823401514185e+000°)
1.20226443461741e+003	(-7.93921638795216e+001dB,-2.22323836048383e+000°)
1.20503594037179e+003	(-7.93115198873553e+001dB,-2.22825519533310e+000°)
1.20781383510678e+003	(-7.92308729041386e+001dB,-2.23328455121420e+000°)
1.21059813355048e+003	(-7.91502229158280e+001dB,-2.23832645978637e+000°)
1.21338885046497e+003	(-7.90695699083191e+001dB,-2.24338095279362e+000°)
1.21618600064636e+003	(-7.89889138674339e+001dB,-2.24844806208042e+000°)
1.21898959892486e+003	(-7.89082547789303e+001dB,-2.25352781959508e+000°)
1.22179966016487e+003	(-7.88275926285009e+001dB,-2.25862025739028e+000°)
1.22461619926504e+003	(-7.87469274017630e+001dB,-2.26372540762524e+000°)
1.22743923115840e+003	(-7.86662590842722e+001dB,-2.26884330256569e+000°)
1.23026877081238e+003	(-7.85855876615138e+001dB,-2.27397397456958e+000°)
1.23310483322890e+003	(-7.85049131189020e+001dB,-2.27911745611562e+000°)
1.23594743344450e+003	(-7.84242354417829e+001dB,-2.28427377977222e+000°)
1.23879658653036e+003	(-7.83435546154344e+001dB,-2.28944297822905e+000°)
1.24165230759241e+003	(-7.82628706250608e+001dB,-2.29462508426973e+000°)
1.24451461177138e+003	(-7.81821834557997e+001dB,-2.29982013078138e+000°)
1.24738351424294e+003	(-7.81014930927157e+001dB,-2.30502815078760e+000°)
1.25025903021771e+003	(-7.80207995208031e+001dB,-2.31024917737829e+000°)
1.25314117494141e+003	(-7.79401027249840e+001dB,-2.31548324378458e+000°)
1.25602996369487e+003	(-7.78594026901100e+001dB,-2.32073038332875e+000°)
1.25892541179416e+003	(-7.77786994009590e+001dB,-2.32599062944826e+000°)
1.26182753459066e+003	(-7.76979928422357e+001dB,-2.33126401568163e+000°)
1.26473634747115e+003	(-7.76172829985760e+001dB,-2.33655057568819e+000°)
1.26765186585784e+003	(-7.75365698545386e+001dB,-2.34185034323720e+000°)
1.27057410520854e+003	(-7.74558533946087e+001dB,-2.34716335220315e+000°)
1.27350308101666e+003	(-7.73751336032017e+001dB,-2.35248963657189e+000°)
1.27643880881134e+003	(-7.72944104646529e+001dB,-2.35782923044661e+000°)
1.27938130415752e+003	(-7.72136839632265e+001dB,-2.36318216804338e+000°)
1.28233058265601e+003	(-7.71329540831101e+001dB,-2.36854848367718e+000°)
1.28528665994361e+003	(-7.70522208084185e+001dB,-2.37392821179536e+000°)
1.28824955169313e+003	(-7.69714841231863e+001dB,-2.37932138694488e+000°)
1.29121927361353e+003	(-7.68907440113772e+001dB,-2.38472804379746e+000°)
1.29419584144998e+003	(-7.68100004568719e+001dB,-2.39014821713199e+000°)
1.29717927098395e+003	(-7.67292534434815e+001dB,-2.39558194184847e+000°)
1.30016957803328e+003	(-7.66485029549332e+001dB,-2.40102925295438e+000°)
1.30316677845229e+003	(-7.65677489748793e+001dB,-2.40649018558081e+000°)
1.30617088813183e+003	(-7.64869914868968e+001dB,-2.41196477497806e+000°)
1.30918192299940e+003	(-7.64062304744779e+001dB,-2.41745305650632e+000°)
1.31219989901920e+003	(-7.63254659210430e+001dB,-2.42295506563999e+000°)
1.31522483219223e+003	(-7.62446978099276e+001dB,-2.42847083798733e+000°)
1.31825673855640e+003	(-7.61639261243907e+001dB,-2.43400040927017e+000°)
1.32129563418657e+003	(-7.60831508476096e+001dB,-2.43954381531646e+000°)
1.32434153519466e+003	(-7.60023719626811e+001dB,-2.44510109208644e+000°)
1.32739445772973e+003	(-7.59215894526229e+001dB,-2.45067227566534e+000°)
1.33045441797808e+003	(-7.58408033003709e+001dB,-2.45625740224297e+000°)
1.33352143216332e+003	(-7.57600134887789e+001dB,-2.46185650815063e+000°)
1.33659551654643e+003	(-7.56792200006179e+001dB,-2.46746962982664e+000°)
1.33967668742593e+003	(-7.55984228185775e+001dB,-2.47309680383263e+000°)
1.34276496113786e+003	(-7.55176219252639e+001dB,-2.47873806686007e+000°)
1.34586035405594e+003	(-7.54368173032013e+001dB,-2.48439345572666e+000°)
1.34896288259165e+003	(-7.53560089348281e+001dB,-2.49006300736221e+000°)
1.35207256319427e+003	(-7.52751968024996e+001dB,-2.49574675883206e+000°)
1.35518941235103e+003	(-7.51943808884894e+001dB,-2.50144474732206e+000°)
1.35831344658715e+003	(-7.51135611749786e+001dB,-2.50715701015013e+000°)
1.36144468246594e+003	(-7.50327376440712e+001dB,-2.51288358475054e+000°)
1.36458313658892e+003	(-7.49519102777820e+001dB,-2.51862450869140e+000°)
1.36772882559584e+003	(-7.48710790580406e+001dB,-2.52437981966596e+000°)
1.37088176616484e+003	(-7.47902439666855e+001dB,-2.53014955549710e+000°)
1.37404197501251e+003	(-7.47094049854734e+001dB,-2.53593375414600e+000°)
1.37720946889394e+003	(-7.46285620960731e+001dB,-2.54173245368087e+000°)
1.38038426460288e+003	(-7.45477152800614e+001dB,-2.54754569231359e+000°)
1.38356637897177e+003	(-7.44668645189319e+001dB,-2.55337350839489e+000°)
1.38675582887188e+003	(-7.43860097940836e+001dB,-2.55921594039109e+000°)
1.38995263121334e+003	(-7.43051510868338e+001dB,-2.56507302690809e+000°)
1.39315680294529e+003	(-7.42242883784019e+001dB,-2.57094480668427e+000°)
1.39636836105593e+003	(-7.41434216499237e+001dB,-2.57683131858851e+000°)
1.39958732257261e+003	(-7.40625508824397e+001dB,-2.58273260162528e+000°)
1.40281370456195e+003	(-7.39816760569019e+001dB,-2.58864869493197e+000°)
1.40604752412990e+003	(-7.39007971541704e+001dB,-2.59457963778185e+000°)
1.40928879842186e+003	(-7.38199141550144e+001dB,-2.60052546958320e+000°)
1.41253754462274e+003	(-7.37390270401078e+001dB,-2.60648622987882e+000°)
1.41579377995707e+003	(-7.36581357900337e+001dB,-2.61246195835174e+000°)
1.41905752168908e+003	(-7.35772403852822e+001dB,-2.61845269481796e+000°)
1.42232878712281e+003	(-7.34963408062470e+001dB,-2.62445847923979e+000°)
1.42560759360218e+003	(-7.34154370332300e+001dB,-2.63047935170519e+000°)
1.42889395851109e+003	(-7.33345290464386e+001dB,-2.63651535245458e+000°)
1.43218789927353e+003	(-7.32536168259811e+001dB,-2.64256652185294e+000°)
1.43548943335364e+003	(-7.31727003518765e+001dB,-2.64863290042774e+000°)
1.43879857825583e+003	(-7.30917796040424e+001dB,-2.65471452882556e+000°)
1.44211535152486e+003	(-7.30108545623003e+001dB,-2.66081144784838e+000°)
1.44543977074592e+003	(-7.29299252063780e+001dB,-2.66692369843713e+000°)
1.44877185354475e+003	(-7.28489915159000e+001dB,-2.67305132167245e+000°)
1.45211161758773e+003	(-7.27680534703978e+001dB,-2.67919435878657e+000°)
1.45545908058195e+003	(-7.26871110493024e+001dB,-2.68535285114989e+000°)
1.45881426027534e+003	(-7.26061642319454e+001dB,-2.69152684027934e+000°)
1.46217717445671e+003	(-7.25252129975585e+001dB,-2.69771636783898e+000°)
1.46554784095590e+003	(-7.24442573252730e+001dB,-2.70392147563797e+000°)
1.46892627764385e+003	(-7.23632971941228e+001dB,-2.71014220563807e+000°)
1.47231250243271e+003	(-7.22823325830353e+001dB,-2.71637859993675e+000°)
1.47570653327588e+003	(-7.22013634708410e+001dB,-2.72263070079718e+000°)
1.47910838816819e+003	(-7.21203898362653e+001dB,-2.72889855061842e+000°)
1.48251808514594e+003	(-7.20394116579310e+001dB,-2.73518219195314e+000°)
1.48593564228699e+003	(-7.19584289143609e+001dB,-2.74148166750945e+000°)
1.48936107771090e+003	(-7.18774415839698e+001dB,-2.74779702013930e+000°)
1.49279440957898e+003	(-7.17964496450724e+001dB,-2.75412829286328e+000°)
1.49623565609442e+003	(-7.17154530758745e+001dB,-2.76047552883080e+000°)
1.49968483550236e+003	(-7.16344518544787e+001dB,-2.76683877136051e+000°)
1.50314196609001e+003	(-7.15534459588832e+001dB,-2.77321806392815e+000°)
1.50660706618673e+003	(-7.14724353669773e+001dB,-2.77961345015202e+000°)
1.51008015416413e+003	(-7.13914200565433e+001dB,-2.78602497381346e+000°)
1.51356124843619e+003	(-7.13104000052600e+001dB,-2.79245267885862e+000°)
1.51705036745932e+003	(-7.12293751906923e+001dB,-2.79889660937492e+000°)
1.52054752973248e+003	(-7.11483455903008e+001dB,-2.80535680962265e+000°)
1.52405275379728e+003	(-7.10673111814368e+001dB,-2.81183332401277e+000°)
1.52756605823806e+003	(-7.09862719413402e+001dB,-2.81832619711631e+000°)
1.53108746168201e+003	(-7.09052278471425e+001dB,-2.82483547367267e+000°)
1.53461698279928e+003	(-7.08241788758623e+001dB,-2.83136119857320e+000°)
1.53815464030302e+003	(-7.07431250044076e+001dB,-2.83790341687583e+000°)
1.54170045294954e+003	(-7.06620662095762e+001dB,-2.84446217379785e+000°)
1.54525443953840e+003	(-7.05810024680523e+001dB,-2.85103751472847e+000°)
1.54881661891247e+003	(-7.04999337564075e+001dB,-2.85762948521718e+000°)
1.55238700995807e+003	(-7.04188600510980e+001dB,-2.86423813097542e+000°)
1.55596563160506e+003	(-7.03377813284687e+001dB,-2.87086349788466e+000°)
1.55955250282694e+003	(-7.02566975647473e+001dB,-2.87750563199004e+000°)
1.56314764264094e+003	(-7.01756087360475e+001dB,-2.88416457951160e+000°)
1.56675107010813e+003	(-7.00945148183661e+001dB,-2.89084038683088e+000°)
1.57036280433354e+003	(-7.00134157875869e+001dB,-2.89753310050484e+000°)
1.57398286446620e+003	(-6.99323116194696e+001dB,-2.90424276725284e+000°)
1.57761126969933e+003	(-6.98512022896644e+001dB,-2.91096943397172e+000°)
1.58124803927037e+003	(-6.97700877736967e+001dB,-2.91771314773021e+000°)
1.58489319246110e+003	(-6.96889680469754e+001dB,-2.92447395576988e+000°)
1.58854674859776e+003	(-6.96078430847919e+001dB,-2.93125190550522e+000°)
1.59220872705115e+003	(-6.95267128623143e+001dB,-2.93804704452406e+000°)
1.59587914723672e+003	(-6.94455773545921e+001dB,-2.94485942058709e+000°)
1.59955802861465e+003	(-6.93644365365516e+001dB,-2.95168908164407e+000°)
1.60324539069002e+003	(-6.92832903829993e+001dB,-2.95853607581105e+000°)
1.60694125301286e+003	(-6.92021388686182e+001dB,-2.96540045137337e+000°)
1.61064563517825e+003	(-6.91209819679668e+001dB,-2.97228225682362e+000°)
1.61435855682647e+003	(-6.90398196554811e+001dB,-2.97918154080831e+000°)
1.61808003764305e+003	(-6.89586519054744e+001dB,-2.98609835216575e+000°)
1.62181009735891e+003	(-6.88774786921310e+001dB,-2.99303273991591e+000°)
1.62554875575047e+003	(-6.87962999895130e+001dB,-2.99998475326189e+000°)
1.62929603263970e+003	(-6.87151157715529e+001dB,-3.00695444158469e+000°)
1.63305194789432e+003	(-6.86339260120584e+001dB,-3.01394185445683e+000°)
1.63681652142779e+003	(-6.85527306847087e+001dB,-3.02094704163209e+000°)
1.64058977319952e+003	(-6.84715297630556e+001dB,-3.02797005305750e+000°)
1.64437172321491e+003	(-6.83903232205217e+001dB,-3.03501093885744e+000°)
1.64816239152549e+003	(-6.83091110303976e+001dB,-3.04206974935116e+000°)
1.65196179822900e+003	(-6.82278931658472e+001dB,-3.04914653504729e+000°)
1.65576996346951e+003	(-6.81466695999002e+001dB,-3.05624134664450e+000°)
1.65958690743754e+003	(-6.80654403054576e+001dB,-3.06335423503228e+000°)
1.66341265037015e+003	(-6.79842052552844e+001dB,-3.07048525128775e+000°)
1.66724721255104e+003	(-6.79029644220165e+001dB,-3.07763444669137e+000°)
1.67109061431069e+003	(-6.78217177781548e+001dB,-3.08480187271254e+000°)
1.67494287602642e+003	(-6.77404652960624e+001dB,-3.09198758101170e+000°)
1.67880401812254e+003	(-6.76592069479734e+001dB,-3.09919162345507e+000°)
1.68267406107045e+003	(-6.75779427059808e+001dB,-3.10641405210120e+000°)
1.68655302538872e+003	(-6.74966725420442e+001dB,-3.11365491920511e+000°)
1.69044093164324e+003	(-6.74153964279839e+001dB,-3.12091427722480e+000°)
1.69433780044731e+003	(-6.73341143354852e+001dB,-3.12819217881602e+000°)
1.69824365246172e+003	(-6.72528262360918e+001dB,-3.13548867683811e+000°)
1.70215850839493e+003	(-6.71715321012094e+001dB,-3.14280382435456e+000°)
1.70608238900310e+003	(-6.70902319021031e+001dB,-3.15013767462924e+000°)
1.71001531509027e+003	(-6.70089256098993e+001dB,-3.15749028113226e+000°)
1.71395730750840e+003	(-6.69276131955794e+001dB,-3.16486169753646e+000°)
1.71790838715757e+003	(-6.68462946299853e+001dB,-3.17225197773026e+000°)
1.72186857498598e+003	(-6.67649698838141e+001dB,-3.17966117580175e+000°)
1.72583789199018e+003	(-6.66836389276225e+001dB,-3.18708934605054e+000°)
1.72981635921508e+003	(-6.66023017318190e+001dB,-3.19453654298932e+000°)
1.73380399775412e+003	(-6.65209582666664e+001dB,-3.20200282133151e+000°)
1.73780082874935e+003	(-6.64396085022867e+001dB,-3.20948823602253e+000°)
1.74180687339159e+003	(-6.63582524086498e+001dB,-3.21699284220268e+000°)
1.74582215292048e+003	(-6.62768899555807e+001dB,-3.22451669523597e+000°)
1.74984668862463e+003	(-6.61955211127557e+001dB,-3.23205985070449e+000°)
1.75388050184174e+003	(-6.61141458497031e+001dB,-3.23962236439498e+000°)
1.75792361395867e+003	(-6.60327641357982e+001dB,-3.24720429233128e+000°)
1.76197604641161e+003	(-6.59513759402703e+001dB,-3.25480569074052e+000°)
1.76603782068614e+003	(-6.58699812321926e+001dB,-3.26242661607365e+000°)
1.77010895831740e+003	(-6.57885799804899e+001dB,-3.27006712501311e+000°)
1.77418948089014e+003	(-6.57071721539326e+001dB,-3.27772727445024e+000°)
1.77827941003890e+003	(-6.56257577211384e+001dB,-3.28540712151290e+000°)
1.78237876744807e+003	(-6.55443366505673e+001dB,-3.29310672354551e+000°)
1.78648757485203e+003	(-6.54629089105279e+001dB,-3.30082613812232e+000°)
1.79060585403527e+003	(-6.53814744691695e+001dB,-3.30856542304841e+000°)
1.79473362683250e+003	(-6.53000332944872e+001dB,-3.31632463635437e+000°)
1.79887091512876e+003	(-6.52185853543172e+001dB,-3.32410383629901e+000°)
1.80301774085954e+003	(-6.51371306163351e+001dB,-3.33190308137534e+000°)
1.80717412601090e+003	(-6.50556690480605e+001dB,-3.33972243031173e+000°)
1.81134009261958e+003	(-6.49742006168499e+001dB,-3.34756194206935e+000°)
1.81551566277311e+003	(-6.48927252899002e+001dB,-3.35542167584008e+000°)
1.81970085860996e+003	(-6.48112430342455e+001dB,-3.36330169105608e+000°)
1.82389570231961e+003	(-6.47297538167582e+001dB,-3.37120204738691e+000°)
1.82810021614272e+003	(-6.46482576041460e+001dB,-3.37912280474550e+000°)
1.83231442237119e+003	(-6.45667543629530e+001dB,-3.38706402327735e+000°)
1.83653834334832e+003	(-6.44852440595557e+001dB,-3.39502576337627e+000°)
1.84077200146893e+003	(-6.44037266601678e+001dB,-3.40300808567954e+000°)
1.84501541917945e+003	(-6.43222021308336e+001dB,-3.41101105106125e+000°)
1.84926861897805e+003	(-6.42406704374294e+001dB,-3.41903472065077e+000°)
1.85353162341478e+003	(-6.41591315456620e+001dB,-3.42707915581825e+000°)
1.85780445509167e+003	(-6.40775854210720e+001dB,-3.43514441818891e+000°)
1.86208713666284e+003	(-6.39960320290249e+001dB,-3.44323056963248e+000°)
1.86637969083464e+003	(-6.39144713347164e+001dB,-3.45133767227040e+000°)
1.87068214036577e+003	(-6.38329033031700e+001dB,-3.45946578848084e+000°)
