#Digilent WaveForms Network Analyzer - Bode
#Device Name: Discovery2
#Serial Number: SN:210321A35F97
#Date Time: 2019-11-17 00:42:18.805
#Start: 100 Hz
#Stop: 100000 Hz
#Steps: 1001
#Wavegen: Wavegen1
#Amplification: 1 X
#Settle: 10 ms
#MinPeriods: 16 
#Channel: Channel 1
#Range: 5.43833 V
#Offset: -5.25147e-05 V
#Relative: no
#Channel: Channel 2
#Range: 5.43395 V
#Offset: -2.27108e-05 V
#Relative: yes
#Power Supplies: ON
#Positive Supply: ON
#Voltage: 5 V
#Negative Supply: ON
#Voltage: -5 V

Frequency (Hz),Channel 1 Magnitude (dB),Channel 2 Magnitude (dB),Channel 2 Phase (deg)
100.0000000000001,0.02207334036328588,-70.48706868096593,-24.56125423825839
100.6931668851805,0.02329464704482358,-71.89993061855519,-24.10412464063818
101.391138573668,0.02401603885278474,-70.84950752860696,-13.05784578493991
102.0939483707681,0.02304024784783275,-69.71524298162267,-4.97421095155013
102.8016298126474,0.02191749866497902,-68.08975379037024,-16.57500245518719
103.5142166679345,0.02324567180679098,-71.68030223830597,-6.676188324135332
104.2317429393305,0.02097812028531076,-70.73369665941406,1.966942973558901
104.9542428652323,0.02375730000789457,-70.84594381161754,-7.628675658061468
105.681750921366,0.02404595971986266,-67.65500502150033,9.166594060206386
106.4143018224318,0.02234886302687089,-69.81219671152843,-1.642896500352258
107.1519305237607,0.02067113299718756,-67.30876497420853,-18.92866837540846
107.894672222983,0.02377559854637376,-68.52837523240116,-0.6906991510936393
108.6425623617067,0.02266112652869429,-67.53313676777002,-9.85938138787094
109.3956366272095,0.02366072330273944,-68.10505216972332,8.576673713125871
110.1539309541416,0.02304892804391866,-67.22654586481342,-24.92468235300733
110.9174815262402,0.02348926464804064,-72.01060438505738,-14.70161837312763
111.6863247780562,0.02255157506465705,-69.15406588848855,7.708796359663694
112.4604973966928,0.02232230610345244,-72.26707238746593,-0.6150548448046891
113.2400363235558,0.02392964058658208,-68.22997142506563,-2.143416533840659
114.024978756117,0.02102068802812113,-66.6558601605428,11.04335348780796
114.8153621496884,0.02200691133324557,-75.36564893015365,-18.52442896238324
115.6112242192101,0.02181650004143626,-70.24313382769819,6.311217022800207
116.4126029410492,0.02286576990689028,-68.88808928697665,-15.51667250466463
117.2195365548131,0.02224463241575693,-66.45016669457019,-14.25007808919483
118.0320635651731,0.02168358700154714,-67.76669618387396,-18.32985523221526
118.850222743702,0.02158867732399278,-66.98566634746824,-18.33025486728155
119.6740531307244,0.02255905216601126,-66.59303942234213,-15.90687271397376
120.5035940371799,0.02405991436040156,-70.22912615684841,9.043862761159616
121.3388850464979,0.02078330541698361,-70.03029088833763,17.58235224516818
122.1799660164873,0.02412810310233053,-70.02373646635677,2.849076950765772
123.0268770812382,0.02345169972243371,-67.8589846843543,-7.618773615219567
123.879658653037,0.02283059507592375,-73.26483665650245,14.95839747831925
124.7383514242945,0.02179449410577289,-68.75429415229534,0.1415934059145343
125.6029963694877,0.02156474023438002,-69.92339278854683,-23.56582848118917
126.4736347471152,0.02335406119665073,-73.57551051548133,11.06877818477751
127.3503081016663,0.02181070428584487,-69.46394165246058,-21.86570796427337
128.2330582656023,0.02245918289882692,-68.08243228257859,-1.57426151402597
129.1219273613536,0.02269861633103144,-65.03511364131478,2.089747351042199
130.0169578033291,0.02364907634346091,-72.45171990890844,0.7889938723658503
130.9181922999408,0.02027607479843487,-72.89183128700762,-6.530968791322294
131.8256738556409,0.02416532976038403,-68.74006821766653,9.971970472321885
132.7394457729741,0.02124550622160834,-68.07351943094372,-43.91557081654173
133.6595516546443,0.02185346628509435,-71.92297171104693,56.87915391049516
134.586035405595,0.02304396675444557,-67.88352173112357,2.541194693089196
135.5189412351038,0.02298139050343012,-69.52984296377223,21.04873741718365
136.4583136588927,0.02157077583689555,-69.00804863596795,-1.224247982471269
137.4041975012516,0.02304037794300147,-71.56678098692032,11.38309040233412
138.3566378971782,0.02093521771916218,-67.91088757191568,3.888794475532762
139.3156802945305,0.02234447013575449,-71.43133839024142,15.22080205589623
140.281370456196,0.02095685865145169,-66.64210055458651,3.741733059708551
141.2537544622755,0.02299995750386232,-66.28726412420849,15.79187126737132
142.2328787122821,0.02352425391113459,-69.19633076547871,12.89504669666425
143.2187899273545,0.02207189268078536,-70.24883282754563,12.96772151510024
144.2115351524871,0.01845961694592829,-68.10977978904661,-0.1050345231835479
145.2111617587744,0.02252618788765706,-72.82311572422219,43.97150332966262
146.217717445672,0.02334846435481741,-65.65559246455841,5.428049780978625
147.2312502432721,0.02141296299551881,-71.3190425250867,3.748536844058236
148.2518085145956,0.02336994787317101,-66.55548006268259,-21.48246102175325
149.2794409578997,0.02337959875457126,-67.79582514818736,4.140261610240913
150.3141966090022,0.02495421782619217,-66.80843378384701,18.37654531750074
151.356124843621,0.02192933756737927,-66.51136175473468,2.112059926775828
152.4052753797292,0.02433079737511665,-72.21150709100579,-46.38230229564247
153.4616982799296,0.02018902330681054,-70.70504760777651,-2.714628758170306
154.5254439538414,0.02308901621606305,-66.90316001150066,2.584530235210504
155.5965631605077,0.02408550299554747,-73.26913080330904,-0.1344685604088767
156.675107010815,0.02025439176650371,-71.67518116976782,21.16061992133715
157.761126969935,0.02161914997572143,-73.90692882138215,8.078861913273826
158.8546748597779,0.02155998224280659,-68.76649039266778,1.182083725976455
159.9558028614671,0.02287330990115043,-66.14695868908372,9.012638597882926
161.0645635178271,0.02098700234036467,-68.41396615157637,6.382287911876533
162.1810097358932,0.0241031426531119,-73.56762838161889,28.19332957355471
163.3051947894335,0.02055181512827054,-77.32293488878683,-50.95883431081688
164.4371723214932,0.02279923621396736,-68.21299707178406,-5.939584199521605
165.5769963469529,0.02321800752581279,-67.95583598516127,25.52727293177168
166.7247212551064,0.02380956212421828,-67.43935545409663,-16.18979608848718
167.8804018122561,0.02285302166388534,-67.30647644960672,-15.99024546414775
169.0440931643265,0.02267933419541393,-70.55232666423998,-12.01481552768122
170.2158508394952,0.02203269598631086,-69.29334332901641,16.52883211686856
171.3957307508427,0.02012324657385493,-71.7933613656494,-29.26334826205743
172.5837891990204,0.02371456166003364,-70.7173808190083,-11.60209242663061
173.7800828749376,0.02058630704832953,-69.41981401633187,-48.43554820772051
174.9846688624658,0.02054961066829021,-67.96857836135884,-13.33496682404959
176.1976046411631,0.02162187037469249,-66.39872796197037,32.07991664488071
177.4189480890166,0.02316443663617583,-71.73040421601412,2.967842851567127
178.6487574852052,0.02058985461487744,-71.28433801595145,-7.162287086499418
179.8870915128789,0.02258913885723667,-66.39402947038197,-11.53282187214234
181.1340092619604,0.02061131905125814,-72.06131193345239,2.255415039753487
182.3895702319639,0.02405010774043374,-67.46217684422091,-25.85991919529462
183.6538343348347,0.02220446975491603,-71.07521722836901,2.202403286105763
184.926861897808,0.0230498088187772,-67.85882004490065,-0.914959639102868
186.2087136662869,0.02405839712088726,-70.27546939550538,-8.072563092167101
187.4994508067419,0.02354971021764532,-67.68162299645914,19.34330153850391
188.7991349096295,0.02313450572745977,-68.28710111560132,-11.35443852446449
190.1078279923302,0.0212534007816359,-68.43291595507098,-17.21480231969436
191.4255925021088,0.02357480215773321,-69.27639209576857,-0.4206973439462018
192.7524913190937,0.02263271485912766,-71.35240593432712,12.7081659706754
194.0885877592779,0.02143249866243646,-71.0207290953947,-15.43776813498385
195.4339455775396,0.0239194940962858,-65.86168406506202,5.964324354279226
196.7886289706847,0.02204391159544185,-71.20904585926768,15.06349187922126
198.1527025805099,0.02212344650074492,-69.05100066491448,-3.962649615432483
199.5262314968881,0.02258792335794037,-67.86575187155351,-34.23407044140919
200.909281260873,0.02366907272734489,-67.95801224435048,30.01684235999518
202.3019178678274,0.02219986756497348,-68.87345517688539,6.54016421366606
203.7042077705719,0.02184339690235002,-73.66771312723498,5.496695510572934
205.1162178825567,0.02314630396903896,-68.45905895063079,-38.59591740562139
206.5380155810531,0.02198808113320884,-68.84064171116158,-9.746853963258033
207.9696687103698,0.02199575705233926,-70.27353489850037,4.350708337176243
209.4112455850893,0.02364863277902798,-66.51215470973646,14.27047237691986
210.8628149933291,0.02238022956351573,-71.39003797428141,13.39920470551831
212.3244462000221,0.02159202352907819,-66.61465416595456,-18.90537422443913
213.7962089502235,0.02497953301907373,-68.96916185172437,15.35280056996069
215.2781734724374,0.02375487988596696,-80.22162728116885,3.409735845204175
216.7704104819696,0.02326062306329362,-65.02576454324782,-20.57735563557844
218.2729911843003,0.02152188842436714,-73.73649729699568,-0.186585817454052
219.7859872784827,0.02165584735013666,-73.99324487917133,41.2459427359731
221.3094709605639,0.02035972510267046,-68.88908292277422,8.485396859750495
222.8435149270305,0.02182401198369883,-68.05681600090901,-34.12383884690354
224.3881923782768,0.02094715606678094,-69.27014257463898,-18.39351725875071
225.9435770220981,0.02211017982213215,-71.1520607791723,-2.483278183367133
227.5097430772071,0.02271363256529707,-71.55042051191184,16.69784081944946
229.0867652767774,0.02434250438504766,-64.59980496779792,6.806003883706751
230.6747188720071,0.02033709284325971,-66.64281220464829,-17.37660082491418
232.273679635711,0.02122741744062993,-73.29279365325407,4.111119632191034
233.8837238659356,0.02285223273557789,-70.56600353171541,3.760177644262981
235.5049283896011,0.02404096874251,-63.94156338371319,-0.4586199096395376
237.1373705661657,0.02379453762519811,-65.84399421166327,-2.161582333906807
238.7811282913181,0.02290077400217278,-67.92930690471388,-12.27314966286376
240.4362800006934,0.02238411400716711,-67.14903065896999,-19.52170263024315
242.102904673618,0.02006519906427211,-77.09338028123514,-28.3710654933307
243.7810818368755,0.02007805519770107,-69.26028013480699,2.234066787269171
245.4708915685034,0.02260029781798303,-66.91747368219666,-3.141574989936643
247.1724145016132,0.02034927286127824,-70.12004184631981,26.97386766179091
248.8857318282393,0.02184271368720954,-73.94001999970234,20.87838865463991
250.6109253032116,0.02258453538637133,-69.05936100794649,-16.06833340398924
252.3480772480578,0.02317453476464529,-70.09398385978956,0.2556802733684123
254.0972705549306,0.02094916475325749,-74.47334323928834,-6.412759966939781
255.8585886905648,0.02244381758502493,-69.20112064454739,-8.487490769245085
257.6321157002578,0.02126070720797326,-68.82381534554236,6.097897778166271
259.4179362118818,0.02038081804776427,-72.31139394517044,-25.3712014919322
261.2161354399208,0.02075318368201564,-72.58102253862872,-25.33042138862004
263.0267991895385,0.02130203142101176,-68.88680506037731,-8.133064694276598
264.8500138606703,0.02189676520149954,-72.98251047786104,18.3539321118803
266.6858664521483,0.02638253598961663,-67.36559872242766,0.8520987914731037
268.5344445658509,0.01959263096236726,-70.50958749040232,-30.19901650895571
270.3958364108846,0.02250587895687812,-67.89299557861581,8.086342954015905
272.2701308077915,0.02094092517617911,-63.43782517067852,-17.92721569867935
274.1574171927887,0.02014536733141339,-68.20299843236172,-23.72966998554048
276.0577856220347,0.02233952770140199,-74.35446349208905,10.381470031052
277.9713267759291,0.02555982326371954,-67.87679456448812,28.1286945587366
279.8981319634366,0.02166777001605309,-67.4412202219624,-27.18413816562314
281.8382931264458,0.02242756668372219,-66.60171411972577,-26.39397419698756
283.7919028441558,0.02353970708357607,-69.82264679013045,-34.51796994197516
285.7590543374949,0.0209823820449379,-69.44592812497426,-9.936078848090112
287.7398414735673,0.02441497601933596,-65.14275090083257,0.9434311257496226
289.7343587701328,0.02280649181256106,-65.45567249512143,-18.43821941688969
291.7427014001169,0.02112894467389243,-74.52279185642377,12.70715315587428
293.7649651961534,0.02117424002208719,-71.36958112296853,23.42212066342422
295.801246655155,0.0227856289161031,-66.62910002902461,17.86258996703143
297.8516429429194,0.02335785494057807,-66.63336893448543,21.06348988891662
299.9162518987653,0.01952468950719466,-71.11132024013257,8.590555679769082
301.9951720402019,0.0217076769219734,-70.00361316270853,-14.38401190338664
304.0885025676283,0.02622631731152605,-67.73482177995858,-7.629489525241155
306.1963433690682,0.02380805095897645,-71.16564378637132,39.42419841722829
308.3187950249356,0.0232378521717751,-73.65375350763587,12.37025139243077
310.4559588128359,0.02367184410160282,-65.34060713266078,-7.306472715411751
312.6079367123959,0.02265139281316455,-74.60114671503713,-15.89612687752704
314.774831410132,0.02037795720134075,-68.93226440654108,19.5909997871819
316.9567463043493,0.02346978022959725,-73.0975262689099,7.554461459871845
319.1537855100765,0.02124034194658274,-69.36776871461902,-10.57660791206845
321.3660538640322,0.01858134967535379,-68.62364448429281,9.48646086147393
323.5936569296288,0.02220243849841173,-70.74640993655311,-15.74914835979746
325.836701002009,0.02310346018779965,-68.37091620227382,6.835754902444016
328.0952931131191,0.02437552998266208,-67.3280431427464,22.57317464680511
330.3695410368152,0.02204684692732494,-68.41121613927922,1.22567995166915
332.6595532940047,0.02221650247987385,-75.4356487522536,-7.018799466689785
334.9654391578279,0.02159833521419404,-71.28845386129653,-27.73518475818685
337.2873086588689,0.01827237992649006,-66.53203177152575,-13.43696194598232
339.6252725904089,0.02172627102547604,-69.40978494345782,-19.37108140070224
341.979442513709,0.02047349195594062,-67.81415315731546,-29.24259576503209
344.3499307633388,0.0194254368246103,-67.86507790791771,-37.24185170474464
346.7368504525317,0.02172223278449883,-71.48933670158587,-33.16389254982776
349.1403154785866,0.02136832007184951,-72.06705733948674,40.41712280691604
351.5604405282983,0.02209530315344356,-69.65638183246597,1.739811844297861
353.997341083435,0.02363575675084224,-66.16209134942801,-32.00879613132305
356.4511334262443,0.02336839317687635,-65.50272861877096,21.30917698544577
358.9219346450057,0.02042952922393178,-71.7167881470439,10.65842921370116
361.4098626396135,0.02303005572990983,-66.85841901760637,-22.14441531503684
363.9150361272075,0.02243067062305032,-67.24384019995526,-20.18233316131766
366.4375746478333,0.02461549604036648,-72.06296039134423,38.93695002143296
368.9775985701509,0.02274818258766031,-69.06616503170991,-31.3358209629499
371.5352290971728,0.02138447277030827,-72.86760531374988,-44.68545079745729
374.1105882720537,0.01980687580178447,-70.06782346815294,-5.310947612025707
376.7037989839089,0.02186538000559274,-75.06000971219861,-7.436801938320343
379.3149849736825,0.01956813910007193,-70.56888708100546,10.07921282382827
381.9442708400468,0.02296910621222557,-70.36406495392633,24.42307200744928
384.5917820453539,0.02487796098225264,-66.96582317600884,-5.51915347780259
387.2576449216173,0.02084315845365401,-65.9607923398312,-24.3576691466539
389.941986676544,0.02054239119361624,-69.91862259587236,-24.46662309158064
392.6449353996001,0.02092098928064311,-68.9351286421405,-10.66178456221044
395.3666200681283,0.02267975516330911,-69.04259191963511,-35.73638920373706
398.1071705534973,0.02447397477223983,-65.02436639558303,4.593987821503447
400.8667176273034,0.02315785884426664,-71.79142911393311,47.17649858218763
403.6453929676053,0.02323982693211748,-71.14939450888647,-48.16141596737043
406.4433291652131,0.01913261178164886,-73.25141715320734,35.10435185892599
409.260659730011,0.02125311142180121,-67.4221854918801,3.446995029898879
412.0975190973304,0.02265523285534358,-68.98188168037093,-9.922885792097219
414.9540426343632,0.02416965980187927,-70.18810647412388,6.057209328028392
417.8303666466222,0.02292740981237865,-67.95804086298713,-31.00935666721647
420.7266283844442,0.02548208435816176,-66.15311089426618,-0.08588764319022602
423.6429660495414,0.02333038215955587,-66.9505696783248,-12.2920012736399
426.5795188015931,0.02432514071360452,-69.70995467447152,-20.21416098787053
429.5364267648877,0.02370502945999624,-71.50483186764839,-47.78797270174239
432.5138310350089,0.01985138208044465,-64.94209127362433,-13.56426200049869
435.5118736855688,0.0207256731027655,-65.13169499226265,-19.68951997418223
438.530697774986,0.02354192639630102,-67.70984684810011,-13.43107895003166
441.5704473533129,0.02291521762715542,-68.25690144764883,-3.172464476095442
444.6312674691089,0.01846982614449691,-66.97635055806062,-21.82985007579373
447.7133041763628,0.02300168700436371,-69.12952811314022,-64.43845683575464
450.8167045414605,0.02259667726777602,-65.02949667849181,-16.29701968012033
453.9416166502037,0.02265258411057412,-67.08826595047081,-9.35994978208862
457.0881896148752,0.02116080746409525,-66.26399909786456,-27.69745586115449
460.2565735813563,0.02205229061356219,-67.22693296573527,-2.953997723185179
463.4469197362884,0.02143673370427242,-66.11007062379949,-18.30656995907845
466.6593803142892,0.01891614890752608,-70.46550681733181,-86.11312910226184
469.8941086052156,0.02259791027787056,-70.12011485199953,-8.937067175179106
473.1512589614808,0.01925786757341848,-69.8740278328693,-11.50387223778564
476.4309868054161,0.02117407947424774,-71.60985104024189,-8.932858450302888
479.7334486366897,0.02116674465194156,-70.55606662604418,-19.38920639913358
483.0588020397728,0.02414783171625104,-70.73198840091453,-22.11062040726463
486.4072056914619,0.02427826128731712,-69.79611139823771,-47.17577483105083
489.7788193684466,0.02220757717731586,-73.8351060482608,30.6089453546486
493.1738039549364,0.02329422828022742,-66.1212135079476,-31.87644390206303
496.5923214503363,0.02164616879182696,-67.10436392939671,-34.35425069635642
500.0345349769788,0.02015061005330072,-69.40592874187136,-26.11609367572999
503.5006087879053,0.02255725351079133,-68.71620918424627,-38.31914455127354
506.990708274705,0.02260105704580948,-68.09117667035737,-26.281548927843
510.5049999754065,0.02044265655436587,-64.09074390820471,-56.29804925695848
514.0436515824264,0.02208084371382621,-67.6744265043187,2.143716879187977
517.6068319505681,0.01920776413842683,-66.33514847384824,-78.13636143760921
521.1947111050811,0.0234071563620674,-69.72975680876814,-53.93995349730668
524.8074602497728,0.02578253044297283,-66.49580139409807,-12.2500555870189
528.4452517751807,0.02187400167970623,-66.37771990118421,-57.4951468893692
532.1082592667947,0.02212310998676288,-66.53594992317046,-86.20734118538182
535.7966575133422,0.01953199155607705,-73.62463829515136,-44.83095845543403
539.5106225151279,0.0213688039876588,-66.8560071152569,-41.80350557040425
543.2503314924336,0.02328492275937059,-77.4931352688528,65.35789906816376
547.0159628939721,0.025204250543701,-70.43895725278928,-43.8760425969765
550.8076964054042,0.02116535243685694,-68.56276575010976,-52.81863106535319
554.625712957911,0.01944300778472752,-74.87717033502746,-11.51736309440506
558.4701947368312,0.02258011609348968,-66.19338271394047,-49.11743351964871
562.3413251903496,0.02156164962788144,-66.69644135691846,-59.97323022621455
566.2392890382534,0.02197613438019254,-67.36102042867967,-26.103848467614
570.1642722807478,0.02263071666352167,-68.30325072857842,-40.01142051025352
574.116462207328,0.0212817915813922,-67.15445349086498,-5.649379675896569
578.0960474057187,0.02005804841500638,-69.80525836840415,-52.33448568497872
582.1032177708717,0.02160347526437018,-76.06893364370143,-103.654367344521
586.1381645140291,0.02103429622836765,-66.23566852150181,-31.38961472607053
