Freq.	V(vin_6)
Step Information: Run=1  (Run: 1/20)
1.00000000000000e+002	(-1.45961195709493e+002dB,1.05121346323983e+002°)
1.02329299228075e+002	(-1.44989001693516e+002dB,1.04643608423280e+002°)
1.04712854805090e+002	(-1.44015579636744e+002dB,1.04169518405532e+002°)
1.07151930523761e+002	(-1.43040963721493e+002dB,1.03699053078887e+002°)
1.09647819614318e+002	(-1.42065187212771e+002dB,1.03232179832034e+002°)
1.12201845430196e+002	(-1.41088282419207e+002dB,1.02768857004068e+002°)
1.14815362149688e+002	(-1.40110280665058e+002dB,1.02309034256376e+002°)
1.17489755493953e+002	(-1.39131212259104e+002dB,1.01852652933536e+002°)
1.20226443461741e+002	(-1.38151106471410e+002dB,1.01399646419995e+002°)
1.23026877081238e+002	(-1.37169991509140e+002dB,1.00949940482141e+002°)
1.25892541179417e+002	(-1.36187894497855e+002dB,1.00503453610488e+002°)
1.28824955169313e+002	(-1.35204841463670e+002dB,1.00060097339149e+002°)
1.31825673855641e+002	(-1.34220857317861e+002dB,9.96197765620246e+001°)
1.34896288259165e+002	(-1.33235965843827e+002dB,9.91823898344306e+001°)
1.38038426460288e+002	(-1.32250189685252e+002dB,9.87478296597193e+001°)
1.41253754462275e+002	(-1.31263550336024e+002dB,9.83159827638189e+001°)
1.44543977074593e+002	(-1.30276068131463e+002dB,9.78867303551634e+001°)
1.47910838816821e+002	(-1.29287762240538e+002dB,9.74599483713994e+001°)
1.51356124843621e+002	(-1.28298650658812e+002dB,9.70355077096435e+001°)
1.54881661891248e+002	(-1.27308750201971e+002dB,9.66132744436949e+001°)
1.58489319246111e+002	(-1.26318076500433e+002dB,9.61931100256130e+001°)
1.62181009735893e+002	(-1.25326643993446e+002dB,9.57748714720480e+001°)
1.65958690743756e+002	(-1.24334465923408e+002dB,9.53584115356772e+001°)
1.69824365246174e+002	(-1.23341554330584e+002dB,9.49435788630967e+001°)
1.73780082874937e+002	(-1.22347920046701e+002dB,9.45302181354852e+001°)
1.77827941003892e+002	(-1.21353572689064e+002dB,9.41181701966668e+001°)
1.81970085860998e+002	(-1.20358520652893e+002dB,9.37072721645573e+001°)
1.86208713666287e+002	(-1.19362771104133e+002dB,9.32973575299790e+001°)
1.90546071796324e+002	(-1.18366329970059e+002dB,9.28882562386280e+001°)
1.94984459975804e+002	(-1.17369201929935e+002dB,9.24797947609369e+001°)
1.99526231496888e+002	(-1.16371390403405e+002dB,9.20717961460951e+001°)
2.04173794466953e+002	(-1.15372897538320e+002dB,9.16640800625104e+001°)
2.08929613085404e+002	(-1.14373724196458e+002dB,9.12564628237668e+001°)
2.13796208950223e+002	(-1.13373869937633e+002dB,9.08487574007991e+001°)
2.18776162394955e+002	(-1.12373333002305e+002dB,9.04407734200398e+001°)
2.23872113856834e+002	(-1.11372110291830e+002dB,9.00323171472039e+001°)
2.29086765276777e+002	(-1.10370197346543e+002dB,8.96231914567158e+001°)
2.34422881531992e+002	(-1.09367588321847e+002dB,8.92131957880868e+001°)
2.39883291901949e+002	(-1.08364275961710e+002dB,8.88021260867309e+001°)
2.45470891568503e+002	(-1.07360251569407e+002dB,8.83897747309520e+001°)
2.51188643150958e+002	(-1.06355504975757e+002dB,8.79759304442365e+001°)
2.57039578276886e+002	(-1.05350024504100e+002dB,8.75603781923380e+001°)
2.63026799189538e+002	(-1.04343796932489e+002dB,8.71428990655995e+001°)
2.69153480392691e+002	(-1.03336807452405e+002dB,8.67232701449894e+001°)
2.75422870333816e+002	(-1.02329039623886e+002dB,8.63012643524045e+001°)
2.81838293126445e+002	(-1.01320475327199e+002dB,8.58766502842994e+001°)
2.88403150312660e+002	(-1.00311094710299e+002dB,8.54491920278039e+001°)
2.95120922666638e+002	(-9.93008761323973e+001dB,8.50186489590048e+001°)
3.01995172040201e+002	(-9.82897961029752e+001dB,8.45847755222692e+001°)
3.09029543251358e+002	(-9.72778292161808e+001dB,8.41473209898876e+001°)
3.16227766016837e+002	(-9.62649480802908e+001dB,8.37060292009103e+001°)
3.23593656929628e+002	(-9.52511232418987e+001dB,8.32606382778141e+001°)
3.31131121482590e+002	(-9.42363231045857e+001dB,8.28108803202397e+001°)
3.38844156139202e+002	(-9.32205138416485e+001dB,8.23564810735952e+001°)
3.46736850452531e+002	(-9.22036593024559e+001dB,8.18971595714330e+001°)
3.54813389233575e+002	(-9.11857209122975e+001dB,8.14326277496450e+001°)
3.63078054770101e+002	(-9.01666575648430e+001dB,8.09625900303265e+001°)
3.71535229097172e+002	(-8.91464255071627e+001dB,8.04867428731268e+001°)
3.80189396320560e+002	(-8.81249782165319e+001dB,8.00047742916475e+001°)
3.89045144994280e+002	(-8.71022662685218e+001dB,7.95163633320185e+001°)
3.98107170553496e+002	(-8.60782371957698e+001dB,7.90211795105793e+001°)
4.07380277804112e+002	(-8.50528353367511e+001dB,7.85188822071968e+001°)
4.16869383470335e+002	(-8.40260016738086e+001dB,7.80091200105102e+001°)
4.26579518801592e+002	(-8.29976736597107e+001dB,7.74915300106435e+001°)
4.36515832240165e+002	(-8.19677850316398e+001dB,7.69657370348495e+001°)
4.46683592150962e+002	(-8.09362656119946e+001dB,7.64313528206715e+001°)
4.57088189614874e+002	(-7.99030410945904e+001dB,7.58879751207336e+001°)
4.67735141287197e+002	(-7.88680328153765e+001dB,7.53351867326968e+001°)
4.78630092322637e+002	(-7.78311575061623e+001dB,7.47725544467189e+001°)
4.89778819368445e+002	(-7.67923270301846e+001dB,7.41996279025952e+001°)
5.01187233627271e+002	(-7.57514480976490e+001dB,7.36159383468506e+001°)
5.12861383991364e+002	(-7.47084219598478e+001dB,7.30209972797290e+001°)
5.24807460249771e+002	(-7.36631440797107e+001dB,7.24142949801902e+001°)
5.37031796370251e+002	(-7.26155037767089e+001dB,7.17952988957085e+001°)
5.49540873857623e+002	(-7.15653838438796e+001dB,7.11634518820376e+001°)
5.62341325190348e+002	(-7.05126601341891e+001dB,7.05181702759002e+001°)
5.75439937337155e+002	(-6.94572011134076e+001dB,6.98588417815331e+001°)
5.88843655355587e+002	(-6.83988673761841e+001dB,6.91848231492761e+001°)
6.02559586074356e+002	(-6.73375111216991e+001dB,6.84954376212236e+001°)
6.16595001861481e+002	(-6.62729755847521e+001dB,6.77899721157479e+001°)
6.30957344480192e+002	(-6.52050944177517e+001dB,6.70676741180888e+001°)
6.45654229034654e+002	(-6.41336910183121e+001dB,6.63277482399585e+001°)
6.60693448007594e+002	(-6.30585777967344e+001dB,6.55693524048059e+001°)
6.76082975391980e+002	(-6.19795553766806e+001dB,6.47915936092135e+001°)
6.91830970918935e+002	(-6.08964117216193e+001dB,6.39935232027815e+001°)
7.07945784384136e+002	(-5.98089211784739e+001dB,6.31741316194262e+001°)
7.24435960074988e+002	(-5.87168434289472e+001dB,6.23323424820890e+001°)
7.41310241300916e+002	(-5.76199223373914e+001dB,6.14670059893500e+001°)
7.58577575029182e+002	(-5.65178846827326e+001dB,6.05768914765737e+001°)
7.76247116628690e+002	(-5.54104387600597e+001dB,5.96606790249239e+001°)
7.94328234724279e+002	(-5.42972728353463e+001dB,5.87169499683069e+001°)
8.12830516164097e+002	(-5.31780534343723e+001dB,5.77441761200171e+001°)
8.31763771102669e+002	(-5.20524234439331e+001dB,5.67407075061980e+001°)
8.51138038202374e+002	(-5.09200000002007e+001dB,5.57047583508367e+001°)
8.70963589956078e+002	(-4.97803721349583e+001dB,5.46343910045221e+001°)
8.91250938133743e+002	(-4.86330981460045e+001dB,5.35274974442646e+001°)
9.12010839355907e+002	(-4.74777026524680e+001dB,5.23817778904158e+001°)
9.33254300796988e+002	(-4.63136732895924e+001dB,5.11947159848765e+001°)
9.54992586021433e+002	(-4.51404569901232e+001dB,4.99635498461500e+001°)
9.77237220955808e+002	(-4.39574557909679e+001dB,4.86852381532060e+001°)
9.99999999999997e+002	(-4.27640220940748e+001dB,4.73564202008537e+001°)
1.02329299228075e+003	(-4.15594532993844e+001dB,4.59733685996608e+001°)
1.04712854805090e+003	(-4.03429857154588e+001dB,4.45319329435885e+001°)
1.07151930523760e+003	(-3.91137876402497e+001dB,4.30274723110706e+001°)
1.09647819614318e+003	(-3.78709514911226e+001dB,4.14547738625555e+001°)
1.12201845430196e+003	(-3.66134848512813e+001dB,3.98079539976584e+001°)
1.14815362149688e+003	(-3.53403002918948e+001dB,3.80803374640507e+001°)
1.17489755493953e+003	(-3.40502038305770e+001dB,3.62643083656173e+001°)
1.20226443461741e+003	(-3.27418819064351e+001dB,3.43511250519165e+001°)
1.23026877081238e+003	(-3.14138868055049e+001dB,3.23306881765619e+001°)
1.25892541179416e+003	(-3.00646205855784e+001dB,3.01912474886401e+001°)
1.28824955169313e+003	(-2.86923177747138e+001dB,2.79190277421374e+001°)
1.31825673855640e+003	(-2.72950275377591e+001dB,2.54977468607600e+001°)
1.34896288259165e+003	(-2.58705967700211e+001dB,2.29079893193431e+001°)
1.38038426460288e+003	(-2.44166569525288e+001dB,2.01263834119669e+001°)
1.41253754462275e+003	(-2.29306200654270e+001dB,1.71245111259760e+001°)
1.44543977074592e+003	(-2.14096932616060e+001dB,1.38674519536204e+001°)
1.47910838816820e+003	(-1.98509299007733e+001dB,1.03118257733344e+001°)
1.51356124843620e+003	(-1.82513487290658e+001dB,6.40315601555489e+000°)
1.54881661891248e+003	(-1.66081784384638e+001dB,2.07233207880784e+000°)
1.58489319246111e+003	(-1.49193301081005e+001dB,-2.76905761289191e+000°)
1.62181009735892e+003	(-1.31842785698933e+001dB,-8.23462854533951e+000°)
1.65958690743755e+003	(-1.14056619709107e+001dB,-1.44699483336111e+001°)
1.69824365246174e+003	(-9.59208837949048e+000dB,-2.16582881743519e+001°)
1.73780082874937e+003	(-7.76278341998904e+000dB,-3.00199612925990e+001°)
1.77827941003892e+003	(-5.95443512544023e+000dB,-3.97925332812041e+001°)
1.81970085860998e+003	(-4.22880434106661e+000dB,-5.11689948927268e+001°)
1.86208713666286e+003	(-2.67478282155433e+000dB,-6.41717354769777e+001°)
1.90546071796324e+003	(-1.39248275697345e+000dB,-7.84906366585475e+001°)
1.94984459975804e+003	(-4.53090558458779e-001dB,-9.34268114845154e+001°)
1.99526231496887e+003	(1.41570335550333e-001dB,-1.08099561269401e+002°)
2.04173794466952e+003	(4.58805925682997e-001dB,-1.21810764596163e+002°)
2.08929613085403e+003	(5.94400475936884e-001dB,-1.34249327883202e+002°)
2.13796208950222e+003	(6.32618437630675e-001dB,-1.45432817895113e+002°)
2.18776162394954e+003	(6.30518534209847e-001dB,-1.55544928185574e+002°)
2.23872113856833e+003	(6.20163512729333e-001dB,-1.64809449011417e+002°)
2.29086765276776e+003	(6.16342954773015e-001dB,-1.73428413135404e+002°)
2.34422881531991e+003	(6.23545185506044e-001dB,1.78437765954002e+002°)
2.39883291901948e+003	(6.40763334012247e-001dB,1.70670869905364e+002°)
2.45470891568502e+003	(6.64479712139242e-001dB,1.63188698712939e+002°)
2.51188643150957e+003	(6.90436272485300e-001dB,1.55937466886813e+002°)
2.57039578276885e+003	(7.14649556581126e-001dB,1.48884628815352e+002°)
2.63026799189537e+003	(7.33952731133818e-001dB,1.42012637305274e+002°)
2.69153480392690e+003	(7.46229598437498e-001dB,1.35313715908917e+002°)
2.75422870333815e+003	(7.50441595493873e-001dB,1.28785633698988e+002°)
2.81838293126444e+003	(7.46518278428834e-001dB,1.22428457014035e+002°)
2.88403150312659e+003	(7.35167070534900e-001dB,1.16242230477787e+002°)
2.95120922666637e+003	(7.17648117066016e-001dB,1.10225498570105e+002°)
3.01995172040200e+003	(6.95549929521394e-001dB,1.04374535372407e+002°)
3.09029543251358e+003	(6.70590295778526e-001dB,9.86831214608834e+001°)
3.16227766016836e+003	(6.44455917840751e-001dB,9.31427015902877e+001°)
3.23593656929627e+003	(6.18684982980914e-001dB,8.77427729240678e+001°)
3.31131121482590e+003	(5.94590320540784e-001dB,8.24713832285461e+001°)
3.38844156139201e+003	(5.73217058062364e-001dB,7.73156526227290e+001°)
3.46736850452530e+003	(5.55327278898938e-001dB,7.22622641901172e+001°)
3.54813389233574e+003	(5.41404361188633e-001dB,6.72978941706680e+001°)
3.63078054770100e+003	(5.31670732462754e-001dB,6.24095704476908e+001°)
3.71535229097171e+003	(5.26114157387054e-001dB,5.75849592666978e+001°)
3.80189396320559e+003	(5.24519036138594e-001dB,5.28125860203002e+001°)
3.89045144994279e+003	(5.26500341295601e-001dB,4.80819981074826e+001°)
3.98107170553495e+003	(5.31538691173063e-001dB,4.33838777361637e+001°)
4.07380277804111e+003	(5.39015646123556e-001dB,3.87101111775442e+001°)
4.16869383470333e+003	(5.48248656288107e-001dB,3.40538191818799e+001°)
4.26579518801591e+003	(5.58525234797435e-001dB,2.94093515534539e+001°)
4.36515832240164e+003	(5.69135933887984e-001dB,2.47722475858570e+001°)
4.46683592150961e+003	(5.79405616658891e-001dB,2.01391633607907e+001°)
4.57088189614873e+003	(5.88722394896770e-001dB,1.55077668779279e+001°)
4.67735141287196e+003	(5.96563489339255e-001dB,1.08766025753327e+001°)
4.78630092322636e+003	(6.02517200924013e-001dB,6.24492789582867e+000°)
4.89778819368444e+003	(6.06300187557749e-001dB,1.61252596023722e+000°)
5.01187233627270e+003	(6.07769334146141e-001dB,-3.02050011907594e+000°)
5.12861383991362e+003	(6.06927681882986e-001dB,-7.65394446441842e+000°)
5.24807460249770e+003	(6.03924128116600e-001dB,-1.22877195012313e+001°)
5.37031796370250e+003	(5.99046890139615e-001dB,-1.69220728552909e+001°)
5.49540873857622e+003	(5.92711007525073e-001dB,-2.15577923615370e+001°)
5.62341325190346e+003	(5.85440400937915e-001dB,-2.61963923189311e+001°)
5.75439937337154e+003	(5.77845180768983e-001dB,-3.08402753719953e+001°)
5.88843655355586e+003	(5.70594989319856e-001dB,-3.54928658136122e+001°)
6.02559586074354e+003	(5.64389164475192e-001dB,-4.01587114252586e+001°)
6.16595001861479e+003	(5.59924445845176e-001dB,-4.48435519549789e+001°)
6.30957344480190e+003	(5.57860835572865e-001dB,-4.95543527814400e+001°)
6.45654229034652e+003	(5.58786116158513e-001dB,-5.42993021003635e+001°)
6.60693448007592e+003	(5.63179465898187e-001dB,-5.90877690652490e+001°)
6.76082975391978e+003	(5.71374654155675e-001dB,-6.39302187932536e+001°)
6.91830970918932e+003	(5.83523503002812e-001dB,-6.88380782162646e+001°)
7.07945784384134e+003	(5.99560729402029e-001dB,-7.38235447935613e+001°)
7.24435960074986e+003	(6.19171988225738e-001dB,-7.88993287111438e+001°)
7.41310241300913e+003	(6.41767957264501e-001dB,-8.40783192766073e+001°)
7.58577575029179e+003	(6.66468632424194e-001dB,-8.93731690328184e+001°)
7.76247116628687e+003	(6.92103541335151e-001dB,-9.47957962489273e+001°)
7.94328234724277e+003	(7.17235105607854e-001dB,-1.00356819647571e+002°)
8.12830516164094e+003	(7.40213465015287e-001dB,-1.06064959930683e+002°)
8.31763771102666e+003	(7.59271090233090e-001dB,-1.11926471186249e+002°)
8.51138038202371e+003	(7.72663677967228e-001dB,-1.17944699677027e+002°)
8.70963589956075e+003	(7.78859424637496e-001dB,-1.24119902674977e+002°)
8.91250938133740e+003	(7.76771509162302e-001dB,-1.30449487432587e+002°)
9.12010839355904e+003	(7.66019009259814e-001dB,-1.36928840150737e+002°)
9.33254300796985e+003	(7.47191099181331e-001dB,-1.43552900023102e+002°)
9.54992586021430e+003	(7.22080479939743e-001dB,-1.50318596455843e+002°)
9.77237220955804e+003	(6.93846291447347e-001dB,-1.57228224879758e+002°)
9.99999999999993e+003	(6.67063445251579e-001dB,-1.64293818180032e+002°)
1.02329299228075e+004	(6.47608769632783e-001dB,-1.71542610606859e+002°)
1.04712854805089e+004	(6.42311849538254e-001dB,-1.79023807329420e+002°)
1.07151930523760e+004	(6.58237417723464e-001dB,1.73182966348912e+002°)
1.09647819614318e+004	(7.01330021374978e-001dB,1.64957113685325e+002°)
1.12201845430196e+004	(7.73887161200233e-001dB,1.56124534525434e+002°)
1.14815362149688e+004	(8.69889639323859e-001dB,1.46445675803209e+002°)
1.17489755493952e+004	(9.66740808444728e-001dB,1.35614174078244e+002°)
1.20226443461740e+004	(1.01241555813113e+000dB,1.23293736784537e+002°)
1.23026877081237e+004	(9.11658944841896e-001dB,1.09247218526061e+002°)
1.25892541179416e+004	(5.28403802746035e-001dB,9.35993364622180e+001°)
1.28824955169313e+004	(-2.66883618475788e-001dB,7.71001746504957e+001°)
1.31825673855640e+004	(-1.51423957053136e+000dB,6.09991488226852e+001°)
1.34896288259164e+004	(-3.13108512538793e+000dB,4.64275804766284e+001°)
1.38038426460288e+004	(-4.97303627645491e+000dB,3.39072881513928e+001°)
1.41253754462274e+004	(-6.91122349073053e+000dB,2.34006235866293e+001°)
1.44543977074592e+004	(-8.86193221381165e+000dB,1.46074760249053e+001°)
1.47910838816820e+004	(-1.07804856738542e+001dB,7.18357788102477e+000°)
1.51356124843620e+004	(-1.26467878056302e+001dB,8.30518861216434e-001°)
1.54881661891247e+004	(-1.44541035657357e+001dB,-4.68562889021849e+000°)
1.58489319246110e+004	(-1.62023427490755e+001dB,-9.54159018373966e+000°)
1.62181009735892e+004	(-1.78944466817344e+001dB,-1.38696886802113e+001°)
1.65958690743755e+004	(-1.95345460168242e+001dB,-1.77694313473569e+001°)
1.69824365246173e+004	(-2.11270574824380e+001dB,-2.13164422319299e+001°)
1.73780082874936e+004	(-2.26762624306155e+001dB,-2.45689643146871e+001°)
1.77827941003891e+004	(-2.41861280661376e+001dB,-2.75724962272011e+001°)
1.81970085860997e+004	(-2.56602485890102e+001dB,-3.03630877461281e+001°)
1.86208713666285e+004	(-2.71018436772348e+001dB,-3.29696937041560e+001°)
1.90546071796323e+004	(-2.85137825944136e+001dB,-3.54158708518245e+001°)
1.94984459975803e+004	(-2.98986180212903e+001dB,-3.77210148958266e+001°)
1.99526231496887e+004	(-3.12586218290372e+001dB,-3.99012733129892e+001°)
2.04173794466951e+004	(-3.25958191769579e+001dB,-4.19702272779506e+001°)
2.08929613085402e+004	(-3.39120194387209e+001dB,-4.39394073447508e+001°)
2.13796208950222e+004	(-3.52088435214529e+001dB,-4.58186880402868e+001°)
2.18776162394954e+004	(-3.64877476505516e+001dB,-4.76165932368656e+001°)
2.23872113856832e+004	(-3.77500439162482e+001dB,-4.93405350342798e+001°)
2.29086765276776e+004	(-3.89969179558990e+001dB,-5.09970025426968e+001°)
2.34422881531990e+004	(-4.02294441523539e+001dB,-5.25917125150346e+001°)
2.39883291901947e+004	(-4.14485987024160e+001dB,-5.41297306323075e+001°)
2.45470891568501e+004	(-4.26552708701584e+001dB,-5.56155699949610e+001°)
2.51188643150956e+004	(-4.38502726980183e+001dB,-5.70532717470299e+001°)
2.57039578276884e+004	(-4.50343474087204e+001dB,-5.84464715725465e+001°)
2.63026799189536e+004	(-4.62081766953726e+001dB,-5.97984549287445e+001°)
2.69153480392689e+004	(-4.73723870659946e+001dB,-6.11122032291844e+001°)
2.75422870333814e+004	(-4.85275553822249e+001dB,-6.23904327013724e+001°)
2.81838293126443e+004	(-4.96742137096339e+001dB,-6.36356272731310e+001°)
2.88403150312658e+004	(-5.08128535783003e+001dB,-6.48500665593589e+001°)
2.95120922666636e+004	(-5.19439297367141e+001dB,-6.60358498032843e+001°)
3.01995172040199e+004	(-5.30678634690385e+001dB,-6.71949164576147e+001°)
3.09029543251357e+004	(-5.41850455348944e+001dB,-6.83290639591965e+001°)
3.16227766016835e+004	(-5.52958387818136e+001dB,-6.94399631470585e+001°)
3.23593656929626e+004	(-5.64005804729680e+001dB,-7.05291716917208e+001°)
3.31131121482588e+004	(-5.74995843664394e+001dB,-7.15981458382742e+001°)
3.38844156139200e+004	(-5.85931425770501e+001dB,-7.26482507129336e+001°)
3.46736850452529e+004	(-5.96815272473062e+001dB,-7.36807694010965e+001°)
3.54813389233573e+004	(-6.07649920502750e+001dB,-7.46969109699901e+001°)
3.63078054770098e+004	(-6.18437735440765e+001dB,-7.56978175813532e+001°)
3.71535229097169e+004	(-6.29180923949715e+001dB,-7.66845708168356e+001°)
3.80189396320558e+004	(-6.39881544837739e+001dB,-7.76581973194782e+001°)
3.89045144994277e+004	(-6.50541519083932e+001dB,-7.86196738393376e+001°)
3.98107170553494e+004	(-6.61162638936338e+001dB,-7.95699317585252e+001°)
4.07380277804109e+004	(-6.71746576180148e+001dB,-8.05098611594651e+001°)
4.16869383470332e+004	(-6.82294889660935e+001dB,-8.14403144919699e+001°)
4.26579518801589e+004	(-6.92809032138038e+001dB,-8.23621098861910e+001°)
4.36515832240162e+004	(-7.03290356533733e+001dB,-8.32760341528766e+001°)
4.46683592150959e+004	(-7.13740121636291e+001dB,-8.41828455062406e+001°)
4.57088189614871e+004	(-7.24159497307938e+001dB,-8.50832760407738e+001°)
4.67735141287194e+004	(-7.34549569243434e+001dB,-8.59780339884995e+001°)
4.78630092322634e+004	(-7.44911343319205e+001dB,-8.68678057806198e+001°)
4.89778819368442e+004	(-7.55245749569116e+001dB,-8.77532579342390e+001°)
5.01187233627268e+004	(-7.65553645818427e+001dB,-8.86350387820630e+001°)
5.12861383991360e+004	(-7.75835821004556e+001dB,-8.95137800613220e+001°)
5.24807460249768e+004	(-7.86092998210290e+001dB,-9.03900983759996e+001°)
5.37031796370248e+004	(-7.96325837431587e+001dB,-9.12645965445856e+001°)
5.49540873857620e+004	(-8.06534938101316e+001dB,-9.21378648449593e+001°)
5.62341325190344e+004	(-8.16720841386213e+001dB,-9.30104821655346e+001°)
