Freq.	V(n007)
1.00000000000000e+003	(-1.39305474257365e+002dB,1.76068110605513e+002°)
1.00230523807790e+003	(-1.39184889136247e+002dB,1.76059193567878e+002°)
1.00461579027840e+003	(-1.39064301308463e+002dB,1.76050254916165e+002°)
1.00693166885180e+003	(-1.38943710761367e+002dB,1.76041294597731e+002°)
1.00925288607668e+003	(-1.38823117482264e+002dB,1.76032312560190e+002°)
1.01157945425990e+003	(-1.38702521458401e+002dB,1.76023308750702e+002°)
1.01391138573668e+003	(-1.38581922676945e+002dB,1.76014283116308e+002°)
1.01624869287070e+003	(-1.38461321125032e+002dB,1.76005235604182e+002°)
1.01859138805412e+003	(-1.38340716789730e+002dB,1.75996166160931e+002°)
1.02093948370768e+003	(-1.38220109658019e+002dB,1.75987074733398e+002°)
1.02329299228075e+003	(-1.38099499716857e+002dB,1.75977961267960e+002°)
1.02565192625141e+003	(-1.37978886953123e+002dB,1.75968825711042e+002°)
1.02801629812647e+003	(-1.37858271353621e+002dB,1.75959668008713e+002°)
1.03038612044162e+003	(-1.37737652905127e+002dB,1.75950488107247e+002°)
1.03276140576140e+003	(-1.37617031594325e+002dB,1.75941285952294e+002°)
1.03514216667934e+003	(-1.37496407407834e+002dB,1.75932061489730e+002°)
1.03752841581801e+003	(-1.37375780332241e+002dB,1.75922814665071e+002°)
1.03992016582906e+003	(-1.37255150354040e+002dB,1.75913545423748e+002°)
1.04231742939330e+003	(-1.37134517459678e+002dB,1.75904253711006e+002°)
1.04472021922080e+003	(-1.37013881635533e+002dB,1.75894939471951e+002°)
1.04712854805090e+003	(-1.36893242867924e+002dB,1.75885602651518e+002°)
1.04954242865232e+003	(-1.36772601143085e+002dB,1.75876243194592e+002°)
1.05196187382322e+003	(-1.36651956447215e+002dB,1.75866861045618e+002°)
1.05438689639126e+003	(-1.36531308766429e+002dB,1.75857456149136e+002°)
1.05681750921366e+003	(-1.36410658086788e+002dB,1.75848028449483e+002°)
1.05925372517729e+003	(-1.36290004394281e+002dB,1.75838577890643e+002°)
1.06169555719872e+003	(-1.36169347674819e+002dB,1.75829104416784e+002°)
1.06414301822431e+003	(-1.36048687914282e+002dB,1.75819607971623e+002°)
1.06659612123026e+003	(-1.35928025098438e+002dB,1.75810088498806e+002°)
1.06905487922266e+003	(-1.35807359213025e+002dB,1.75800545941862e+002°)
1.07151930523761e+003	(-1.35686690243701e+002dB,1.75790980244050e+002°)
1.07398941234124e+003	(-1.35566018176043e+002dB,1.75781391348523e+002°)
1.07646521362983e+003	(-1.35445342995589e+002dB,1.75771779198355e+002°)
1.07894672222983e+003	(-1.35324664687782e+002dB,1.75762143736236e+002°)
1.08143395129794e+003	(-1.35203983238012e+002dB,1.75752484904856e+002°)
1.08392691402120e+003	(-1.35083298631595e+002dB,1.75742802646706e+002°)
1.08642562361706e+003	(-1.34962610853779e+002dB,1.75733096904174e+002°)
1.08893009333343e+003	(-1.34841919889735e+002dB,1.75723367619302e+002°)
1.09144033644875e+003	(-1.34721225724583e+002dB,1.75713614734088e+002°)
1.09395636627209e+003	(-1.34600528343354e+002dB,1.75703838190376e+002°)
1.09647819614318e+003	(-1.34479827731015e+002dB,1.75694037929773e+002°)
1.09900583943252e+003	(-1.34359123872466e+002dB,1.75684213893767e+002°)
1.10153930954141e+003	(-1.34238416752532e+002dB,1.75674366023558e+002°)
1.10407861990207e+003	(-1.34117706355968e+002dB,1.75664494260380e+002°)
1.10662378397766e+003	(-1.33996992667453e+002dB,1.75654598545137e+002°)
1.10917481526240e+003	(-1.33876275671603e+002dB,1.75644678818504e+002°)
1.11173172728159e+003	(-1.33755555352955e+002dB,1.75634735021187e+002°)
1.11429453359173e+003	(-1.33634831695971e+002dB,1.75624767093569e+002°)
1.11686324778056e+003	(-1.33514104685040e+002dB,1.75614774975881e+002°)
1.11943788346715e+003	(-1.33393374304485e+002dB,1.75604758608209e+002°)
1.12201845430196e+003	(-1.33272640538552e+002dB,1.75594717930338e+002°)
1.12460497396692e+003	(-1.33151903371407e+002dB,1.75584652882178e+002°)
1.12719745617551e+003	(-1.33031162787151e+002dB,1.75574563403075e+002°)
1.12979591467279e+003	(-1.32910418769798e+002dB,1.75564449432372e+002°)
1.13240036323555e+003	(-1.32789671303297e+002dB,1.75554310909415e+002°)
1.13501081567231e+003	(-1.32668920371510e+002dB,1.75544147772985e+002°)
1.13762728582343e+003	(-1.32548165958241e+002dB,1.75533959962027e+002°)
1.14024978756117e+003	(-1.32427408047199e+002dB,1.75523747415022e+002°)
1.14287833478977e+003	(-1.32306646622033e+002dB,1.75513510070624e+002°)
1.14551294144553e+003	(-1.32185881666295e+002dB,1.75503247866941e+002°)
1.14815362149688e+003	(-1.32065113163476e+002dB,1.75492960742050e+002°)
1.15080038894443e+003	(-1.31944341096982e+002dB,1.75482648633879e+002°)
1.15345325782109e+003	(-1.31823565450139e+002dB,1.75472311480173e+002°)
1.15611224219210e+003	(-1.31702786206206e+002dB,1.75461949218244e+002°)
1.15877735615512e+003	(-1.31582003348346e+002dB,1.75451561785563e+002°)
1.16144861384034e+003	(-1.31461216859653e+002dB,1.75441149119311e+002°)
1.16412602941049e+003	(-1.31340426723140e+002dB,1.75430711156379e+002°)
1.16680961706096e+003	(-1.31219632921737e+002dB,1.75420247833512e+002°)
1.16949939101987e+003	(-1.31098835438293e+002dB,1.75409759087349e+002°)
1.17219536554813e+003	(-1.30978034255583e+002dB,1.75399244854083e+002°)
1.17489755493953e+003	(-1.30857229356293e+002dB,1.75388705070139e+002°)
1.17760597352080e+003	(-1.30736420723031e+002dB,1.75378139671325e+002°)
1.18032063565173e+003	(-1.30615608338315e+002dB,1.75367548593588e+002°)
1.18304155572516e+003	(-1.30494792184600e+002dB,1.75356931772417e+002°)
1.18576874816716e+003	(-1.30373972244231e+002dB,1.75346289143264e+002°)
1.18850222743701e+003	(-1.30253148499493e+002dB,1.75335620641396e+002°)
1.19124200802737e+003	(-1.30132320932573e+002dB,1.75324926201710e+002°)
1.19398810446427e+003	(-1.30011489525579e+002dB,1.75314205759195e+002°)
1.19674053130724e+003	(-1.29890654260537e+002dB,1.75303459248334e+002°)
1.19949930314937e+003	(-1.29769815119382e+002dB,1.75292686603545e+002°)
1.20226443461741e+003	(-1.29648972083963e+002dB,1.75281887759177e+002°)
1.20503594037179e+003	(-1.29528125136052e+002dB,1.75271062649182e+002°)
1.20781383510678e+003	(-1.29407274257330e+002dB,1.75260211207362e+002°)
1.21059813355048e+003	(-1.29286419429385e+002dB,1.75249333367404e+002°)
1.21338885046497e+003	(-1.29165560633730e+002dB,1.75238429062709e+002°)
1.21618600064636e+003	(-1.29044697851775e+002dB,1.75227498226433e+002°)
1.21898959892486e+003	(-1.28923831064860e+002dB,1.75216540791637e+002°)
1.22179966016487e+003	(-1.28802960254220e+002dB,1.75205556691209e+002°)
1.22461619926504e+003	(-1.28682085401013e+002dB,1.75194545857618e+002°)
1.22743923115840e+003	(-1.28561206486305e+002dB,1.75183508223269e+002°)
1.23026877081238e+003	(-1.28440323491068e+002dB,1.75172443720436e+002°)
1.23310483322890e+003	(-1.28319436396184e+002dB,1.75161352281009e+002°)
1.23594743344450e+003	(-1.28198545182446e+002dB,1.75150233836837e+002°)
1.23879658653036e+003	(-1.28077649830565e+002dB,1.75139088319461e+002°)
1.24165230759241e+003	(-1.27956750321150e+002dB,1.75127915660186e+002°)
1.24451461177138e+003	(-1.27835846634715e+002dB,1.75116715790215e+002°)
1.24738351424294e+003	(-1.27714938751687e+002dB,1.75105488640395e+002°)
1.25025903021771e+003	(-1.27594026652407e+002dB,1.75094234141499e+002°)
1.25314117494141e+003	(-1.27473110317116e+002dB,1.75082952224022e+002°)
1.25602996369487e+003	(-1.27352189725953e+002dB,1.75071642818254e+002°)
1.25892541179416e+003	(-1.27231264858976e+002dB,1.75060305854206e+002°)
1.26182753459066e+003	(-1.27110335696150e+002dB,1.75048941261752e+002°)
1.26473634747115e+003	(-1.26989402217324e+002dB,1.75037548970575e+002°)
1.26765186585784e+003	(-1.26868464402280e+002dB,1.75026128910010e+002°)
1.27057410520854e+003	(-1.26747522230687e+002dB,1.75014681009280e+002°)
1.27350308101666e+003	(-1.26626575682114e+002dB,1.75003205197386e+002°)
1.27643880881134e+003	(-1.26505624736041e+002dB,1.74991701403112e+002°)
1.27938130415752e+003	(-1.26384669371852e+002dB,1.74980169554885e+002°)
1.28233058265601e+003	(-1.26263709568831e+002dB,1.74968609581056e+002°)
1.28528665994361e+003	(-1.26142745306162e+002dB,1.74957021409736e+002°)
1.28824955169313e+003	(-1.26021776562925e+002dB,1.74945404968757e+002°)
1.29121927361353e+003	(-1.25900803318113e+002dB,1.74933760185793e+002°)
1.29419584144998e+003	(-1.25779825550611e+002dB,1.74922086988167e+002°)
1.29717927098395e+003	(-1.25658843239204e+002dB,1.74910385303150e+002°)
1.30016957803328e+003	(-1.25537856362581e+002dB,1.74898655057586e+002°)
1.30316677845229e+003	(-1.25416864899323e+002dB,1.74886896178268e+002°)
1.30617088813183e+003	(-1.25295868827907e+002dB,1.74875108591686e+002°)
1.30918192299940e+003	(-1.25174868126726e+002dB,1.74863292224084e+002°)
1.31219989901920e+003	(-1.25053862774047e+002dB,1.74851447001491e+002°)
1.31522483219223e+003	(-1.24932852748044e+002dB,1.74839572849647e+002°)
1.31825673855640e+003	(-1.24811838026796e+002dB,1.74827669694174e+002°)
1.32129563418657e+003	(-1.24690818588255e+002dB,1.74815737460400e+002°)
1.32434153519466e+003	(-1.24569794410292e+002dB,1.74803776073317e+002°)
1.32739445772973e+003	(-1.24448765470658e+002dB,1.74791785457844e+002°)
1.33045441797808e+003	(-1.24327731747005e+002dB,1.74779765538613e+002°)
1.33352143216332e+003	(-1.24206693216875e+002dB,1.74767716239950e+002°)
1.33659551654643e+003	(-1.24085649857705e+002dB,1.74755637485990e+002°)
1.33967668742593e+003	(-1.23964601646823e+002dB,1.74743529200628e+002°)
1.34276496113786e+003	(-1.23843548561449e+002dB,1.74731391307502e+002°)
1.34586035405594e+003	(-1.23722490578698e+002dB,1.74719223730009e+002°)
1.34896288259165e+003	(-1.23601427675567e+002dB,1.74707026391310e+002°)
1.35207256319427e+003	(-1.23480359828958e+002dB,1.74694799214282e+002°)
1.35518941235103e+003	(-1.23359287015650e+002dB,1.74682542121684e+002°)
1.35831344658715e+003	(-1.23238209212315e+002dB,1.74670255035850e+002°)
1.36144468246594e+003	(-1.23117126395516e+002dB,1.74657937878940e+002°)
1.36458313658892e+003	(-1.22996038541702e+002dB,1.74645590572938e+002°)
1.36772882559584e+003	(-1.22874945627215e+002dB,1.74633213039490e+002°)
1.37088176616484e+003	(-1.22753847628272e+002dB,1.74620805200008e+002°)
1.37404197501251e+003	(-1.22632744520989e+002dB,1.74608366975617e+002°)
1.37720946889394e+003	(-1.22511636281365e+002dB,1.74595898287266e+002°)
1.38038426460288e+003	(-1.22390522885278e+002dB,1.74583399055560e+002°)
1.38356637897177e+003	(-1.22269404308500e+002dB,1.74570869200988e+002°)
1.38675582887188e+003	(-1.22148280526679e+002dB,1.74558308643595e+002°)
1.38995263121334e+003	(-1.22027151515355e+002dB,1.74545717303331e+002°)
1.39315680294529e+003	(-1.21906017249942e+002dB,1.74533095099756e+002°)
1.39636836105593e+003	(-1.21784877705748e+002dB,1.74520441952279e+002°)
1.39958732257261e+003	(-1.21663732857951e+002dB,1.74507757779980e+002°)
1.40281370456195e+003	(-1.21542582681619e+002dB,1.74495042501677e+002°)
1.40604752412990e+003	(-1.21421427151697e+002dB,1.74482296035974e+002°)
1.40928879842186e+003	(-1.21300266243008e+002dB,1.74469518301154e+002°)
1.41253754462274e+003	(-1.21179099930266e+002dB,1.74456709215293e+002°)
1.41579377995707e+003	(-1.21057928188049e+002dB,1.74443868696076e+002°)
1.41905752168908e+003	(-1.20936750990820e+002dB,1.74430996661151e+002°)
1.42232878712281e+003	(-1.20815568312926e+002dB,1.74418093027609e+002°)
1.42560759360218e+003	(-1.20694380128581e+002dB,1.74405157712470e+002°)
1.42889395851109e+003	(-1.20573186411881e+002dB,1.74392190632429e+002°)
1.43218789927353e+003	(-1.20451987136798e+002dB,1.74379191703870e+002°)
1.43548943335364e+003	(-1.20330782277178e+002dB,1.74366160842987e+002°)
1.43879857825583e+003	(-1.20209571806744e+002dB,1.74353097965640e+002°)
1.44211535152486e+003	(-1.20088355699091e+002dB,1.74340002987340e+002°)
1.44543977074592e+003	(-1.19967133927686e+002dB,1.74326875823501e+002°)
1.44877185354475e+003	(-1.19845906465874e+002dB,1.74313716389037e+002°)
1.45211161758773e+003	(-1.19724673286870e+002dB,1.74300524598792e+002°)
1.45545908058195e+003	(-1.19603434363760e+002dB,1.74287300367207e+002°)
1.45881426027534e+003	(-1.19482189669500e+002dB,1.74274043608457e+002°)
1.46217717445671e+003	(-1.19360939176920e+002dB,1.74260754236443e+002°)
1.46554784095590e+003	(-1.19239682858713e+002dB,1.74247432164750e+002°)
1.46892627764385e+003	(-1.19118420687449e+002dB,1.74234077306783e+002°)
1.47231250243271e+003	(-1.18997152635565e+002dB,1.74220689575454e+002°)
1.47570653327588e+003	(-1.18875878675362e+002dB,1.74207268883627e+002°)
1.47910838816819e+003	(-1.18754598779008e+002dB,1.74193815143707e+002°)
1.48251808514594e+003	(-1.18633312918543e+002dB,1.74180328267810e+002°)
1.48593564228699e+003	(-1.18512021065866e+002dB,1.74166808167901e+002°)
1.48936107771090e+003	(-1.18390723192748e+002dB,1.74153254755486e+002°)
1.49279440957898e+003	(-1.18269419270822e+002dB,1.74139667941858e+002°)
1.49623565609442e+003	(-1.18148109271577e+002dB,1.74126047638019e+002°)
1.49968483550236e+003	(-1.18026793166378e+002dB,1.74112393754601e+002°)
1.50314196609001e+003	(-1.17905470926448e+002dB,1.74098706202017e+002°)
1.50660706618673e+003	(-1.17784142522865e+002dB,1.74084984890373e+002°)
1.51008015416413e+003	(-1.17662807926576e+002dB,1.74071229729358e+002°)
1.51356124843619e+003	(-1.17541467108387e+002dB,1.74057440628530e+002°)
1.51705036745932e+003	(-1.17420120038957e+002dB,1.74043617497016e+002°)
1.52054752973248e+003	(-1.17298766688818e+002dB,1.74029760243629e+002°)
1.52405275379728e+003	(-1.17177407028343e+002dB,1.74015868776980e+002°)
1.52756605823806e+003	(-1.17056041027778e+002dB,1.74001943005296e+002°)
1.53108746168201e+003	(-1.16934668657214e+002dB,1.73987982836475e+002°)
1.53461698279928e+003	(-1.16813289886606e+002dB,1.73973988178167e+002°)
1.53815464030302e+003	(-1.16691904685763e+002dB,1.73959958937610e+002°)
1.54170045294954e+003	(-1.16570513024343e+002dB,1.73945895021809e+002°)
1.54525443953840e+003	(-1.16449114871865e+002dB,1.73931796337459e+002°)
1.54881661891247e+003	(-1.16327710197698e+002dB,1.73917662790895e+002°)
1.55238700995807e+003	(-1.16206298971066e+002dB,1.73903494288096e+002°)
1.55596563160506e+003	(-1.16084881161042e+002dB,1.73889290734803e+002°)
1.55955250282694e+003	(-1.15963456736548e+002dB,1.73875052036395e+002°)
1.56314764264094e+003	(-1.15842025666360e+002dB,1.73860778097930e+002°)
1.56675107010813e+003	(-1.15720587919107e+002dB,1.73846468824078e+002°)
1.57036280433354e+003	(-1.15599143463259e+002dB,1.73832124119306e+002°)
1.57398286446620e+003	(-1.15477692267136e+002dB,1.73817743887628e+002°)
1.57761126969933e+003	(-1.15356234298910e+002dB,1.73803328032835e+002°)
1.58124803927037e+003	(-1.15234769526595e+002dB,1.73788876458295e+002°)
1.58489319246110e+003	(-1.15113297918049e+002dB,1.73774389067067e+002°)
1.58854674859776e+003	(-1.14991819440982e+002dB,1.73759865761931e+002°)
1.59220872705115e+003	(-1.14870334062939e+002dB,1.73745306445255e+002°)
1.59587914723672e+003	(-1.14748841751319e+002dB,1.73730711019084e+002°)
1.59955802861465e+003	(-1.14627342473355e+002dB,1.73716079385151e+002°)
1.60324539069002e+003	(-1.14505836196124e+002dB,1.73701411444836e+002°)
1.60694125301286e+003	(-1.14384322886547e+002dB,1.73686707099164e+002°)
1.61064563517825e+003	(-1.14262802511380e+002dB,1.73671966248801e+002°)
1.61435855682647e+003	(-1.14141275037221e+002dB,1.73657188794096e+002°)
1.61808003764305e+003	(-1.14019740430509e+002dB,1.73642374635082e+002°)
1.62181009735891e+003	(-1.13898198657518e+002dB,1.73627523671306e+002°)
1.62554875575047e+003	(-1.13776649684359e+002dB,1.73612635802154e+002°)
1.62929603263970e+003	(-1.13655093476977e+002dB,1.73597710926480e+002°)
1.63305194789432e+003	(-1.13533530001159e+002dB,1.73582748942909e+002°)
1.63681652142779e+003	(-1.13411959222520e+002dB,1.73567749749623e+002°)
1.64058977319952e+003	(-1.13290381106512e+002dB,1.73552713244485e+002°)
1.64437172321491e+003	(-1.13168795618417e+002dB,1.73537639325029e+002°)
1.64816239152549e+003	(-1.13047202723353e+002dB,1.73522527888361e+002°)
1.65196179822900e+003	(-1.12925602386264e+002dB,1.73507378831263e+002°)
1.65576996346951e+003	(-1.12803994571925e+002dB,1.73492192050144e+002°)
1.65958690743754e+003	(-1.12682379244948e+002dB,1.73476967441012e+002°)
1.66341265037015e+003	(-1.12560756369764e+002dB,1.73461704899556e+002°)
1.66724721255104e+003	(-1.12439125910635e+002dB,1.73446404321090e+002°)
1.67109061431069e+003	(-1.12317487831649e+002dB,1.73431065600538e+002°)
1.67494287602642e+003	(-1.12195842096726e+002dB,1.73415688632393e+002°)
1.67880401812254e+003	(-1.12074188669600e+002dB,1.73400273310874e+002°)
1.68267406107045e+003	(-1.11952527513838e+002dB,1.73384819529769e+002°)
1.68655302538872e+003	(-1.11830858592828e+002dB,1.73369327182475e+002°)
1.69044093164324e+003	(-1.11709181869775e+002dB,1.73353796162035e+002°)
1.69433780044731e+003	(-1.11587497307714e+002dB,1.73338226361077e+002°)
1.69824365246172e+003	(-1.11465804869495e+002dB,1.73322617671873e+002°)
1.70215850839493e+003	(-1.11344104517788e+002dB,1.73306969986293e+002°)
1.70608238900310e+003	(-1.11222396215086e+002dB,1.73291283195781e+002°)
1.71001531509027e+003	(-1.11100679923691e+002dB,1.73275557191478e+002°)
1.71395730750840e+003	(-1.10978955605730e+002dB,1.73259791864043e+002°)
1.71790838715757e+003	(-1.10857223223143e+002dB,1.73243987103777e+002°)
1.72186857498598e+003	(-1.10735482737685e+002dB,1.73228142800576e+002°)
1.72583789199018e+003	(-1.10613734110923e+002dB,1.73212258843964e+002°)
1.72981635921508e+003	(-1.10491977304241e+002dB,1.73196335123020e+002°)
1.73380399775412e+003	(-1.10370212278831e+002dB,1.73180371526414e+002°)
1.73780082874935e+003	(-1.10248438995700e+002dB,1.73164367942461e+002°)
1.74180687339159e+003	(-1.10126657415662e+002dB,1.73148324259036e+002°)
1.74582215292048e+003	(-1.10004867499341e+002dB,1.73132240363600e+002°)
1.74984668862463e+003	(-1.09883069207172e+002dB,1.73116116143204e+002°)
1.75388050184174e+003	(-1.09761262499390e+002dB,1.73099951484515e+002°)
1.75792361395867e+003	(-1.09639447336045e+002dB,1.73083746273722e+002°)
1.76197604641161e+003	(-1.09517623676989e+002dB,1.73067500396658e+002°)
1.76603782068614e+003	(-1.09395791481874e+002dB,1.73051213738695e+002°)
1.77010895831740e+003	(-1.09273950710162e+002dB,1.73034886184802e+002°)
1.77418948089014e+003	(-1.09152101321112e+002dB,1.73018517619514e+002°)
1.77827941003890e+003	(-1.09030243273784e+002dB,1.73002107926956e+002°)
1.78237876744807e+003	(-1.08908376527047e+002dB,1.72985656990790e+002°)
1.78648757485203e+003	(-1.08786501039557e+002dB,1.72969164694275e+002°)
1.79060585403527e+003	(-1.08664616769775e+002dB,1.72952630920224e+002°)
1.79473362683250e+003	(-1.08542723675959e+002dB,1.72936055551025e+002°)
1.79887091512876e+003	(-1.08420821716160e+002dB,1.72919438468613e+002°)
1.80301774085954e+003	(-1.08298910848229e+002dB,1.72902779554484e+002°)
1.80717412601090e+003	(-1.08176991029805e+002dB,1.72886078689725e+002°)
1.81134009261958e+003	(-1.08055062218323e+002dB,1.72869335754923e+002°)
1.81551566277311e+003	(-1.07933124371009e+002dB,1.72852550630254e+002°)
1.81970085860996e+003	(-1.07811177444881e+002dB,1.72835723195433e+002°)
1.82389570231961e+003	(-1.07689221396747e+002dB,1.72818853329732e+002°)
1.82810021614272e+003	(-1.07567256183203e+002dB,1.72801940911942e+002°)
1.83231442237119e+003	(-1.07445281760630e+002dB,1.72784985820444e+002°)
1.83653834334832e+003	(-1.07323298085197e+002dB,1.72767987933120e+002°)
1.84077200146893e+003	(-1.07201305112859e+002dB,1.72750947127410e+002°)
1.84501541917945e+003	(-1.07079302799358e+002dB,1.72733863280287e+002°)
1.84926861897805e+003	(-1.06957291100210e+002dB,1.72716736268256e+002°)
1.85353162341478e+003	(-1.06835269970726e+002dB,1.72699565967328e+002°)
1.85780445509167e+003	(-1.06713239365986e+002dB,1.72682352253111e+002°)
1.86208713666284e+003	(-1.06591199240855e+002dB,1.72665095000639e+002°)
1.86637969083464e+003	(-1.06469149549975e+002dB,1.72647794084592e+002°)
1.87068214036577e+003	(-1.06347090247770e+002dB,1.72630449379044e+002°)
1.87499450806739e+003	(-1.06225021288432e+002dB,1.72613060757694e+002°)
1.87931681680324e+003	(-1.06102942625935e+002dB,1.72595628093694e+002°)
1.88364908948977e+003	(-1.05980854214025e+002dB,1.72578151259735e+002°)
1.88799134909627e+003	(-1.05858756006219e+002dB,1.72560630128007e+002°)
