Freq.	V(n009)
1.00000000000000e+003	(-1.84222684973661e+002dB,-6.43928183393427e+000°)
1.00230523807790e+003	(-1.84062028702672e+002dB,-6.45400003533324e+000°)
1.00461579027840e+003	(-1.83901369396568e+002dB,-6.46875339486717e+000°)
1.00693166885180e+003	(-1.83740707041560e+002dB,-6.48354199763077e+000°)
1.00925288607668e+003	(-1.83580041623228e+002dB,-6.49836592910863e+000°)
1.01157945425990e+003	(-1.83419373127317e+002dB,-6.51322527430487e+000°)
1.01391138573668e+003	(-1.83258701539633e+002dB,-6.52812011829126e+000°)
1.01624869287070e+003	(-1.83098026845538e+002dB,-6.54305054741338e+000°)
1.01859138805412e+003	(-1.82937349030740e+002dB,-6.55801664644379e+000°)
1.02093948370768e+003	(-1.82776668080378e+002dB,-6.57301850346103e+000°)
1.02329299228075e+003	(-1.82615983980080e+002dB,-6.58805620382372e+000°)
1.02565192625141e+003	(-1.82455296715206e+002dB,-6.60312983428844e+000°)
1.02801629812647e+003	(-1.82294606270858e+002dB,-6.61823948131639e+000°)
1.03038612044162e+003	(-1.82133912632069e+002dB,-6.63338523321900e+000°)
1.03276140576140e+003	(-1.81973215784394e+002dB,-6.64856717578442e+000°)
1.03514216667934e+003	(-1.81812515712376e+002dB,-6.66378539812827e+000°)
1.03752841581801e+003	(-1.81651812401282e+002dB,-6.67903998761770e+000°)
1.03992016582906e+003	(-1.81491105835832e+002dB,-6.69433103212581e+000°)
1.04231742939330e+003	(-1.81330396001047e+002dB,-6.70965862003164e+000°)
1.04472021922080e+003	(-1.81169682881490e+002dB,-6.72502284013313e+000°)
1.04712854805090e+003	(-1.81008966461930e+002dB,-6.74042378104302e+000°)
1.04954242865232e+003	(-1.80848246726839e+002dB,-6.75586153284010e+000°)
1.05196187382322e+003	(-1.80687523660916e+002dB,-6.77133618384876e+000°)
1.05438689639126e+003	(-1.80526797248586e+002dB,-6.78684782343231e+000°)
1.05681750921366e+003	(-1.80366067474117e+002dB,-6.80239654241878e+000°)
1.05925372517729e+003	(-1.80205334322117e+002dB,-6.81798242952407e+000°)
1.06169555719872e+003	(-1.80044597776554e+002dB,-6.83360557704835e+000°)
1.06414301822431e+003	(-1.79883857821655e+002dB,-6.84926607413262e+000°)
1.06659612123026e+003	(-1.79723114441519e+002dB,-6.86496401187668e+000°)
1.06905487922266e+003	(-1.79562367620196e+002dB,-6.88069948190297e+000°)
1.07151930523761e+003	(-1.79401617341633e+002dB,-6.89647257523027e+000°)
1.07398941234124e+003	(-1.79240863589607e+002dB,-6.91228338283979e+000°)
1.07646521362983e+003	(-1.79080106347972e+002dB,-6.92813199757845e+000°)
1.07894672222983e+003	(-1.78919345600482e+002dB,-6.94401851115482e+000°)
1.08143395129794e+003	(-1.78758581330850e+002dB,-6.95994301602761e+000°)
1.08392691402120e+003	(-1.78597813522491e+002dB,-6.97590560478079e+000°)
1.08642562361706e+003	(-1.78437042158909e+002dB,-6.99190637064872e+000°)
1.08893009333343e+003	(-1.78276267223469e+002dB,-7.00794540645630e+000°)
1.09144033644875e+003	(-1.78115488699769e+002dB,-7.02402280526567e+000°)
1.09395636627209e+003	(-1.77954706570810e+002dB,-7.04013866092557e+000°)
1.09647819614318e+003	(-1.77793920819801e+002dB,-7.05629306819051e+000°)
1.09900583943252e+003	(-1.77633131429830e+002dB,-7.07248612066121e+000°)
1.10153930954141e+003	(-1.77472338383980e+002dB,-7.08871791267913e+000°)
1.10407861990207e+003	(-1.77311541665174e+002dB,-7.10498853962169e+000°)
1.10662378397766e+003	(-1.77150741256156e+002dB,-7.12129809549983e+000°)
1.10917481526240e+003	(-1.76989937139895e+002dB,-7.13764667647137e+000°)
1.11173172728159e+003	(-1.76829129298926e+002dB,-7.15403437803893e+000°)
1.11429453359173e+003	(-1.76668317715967e+002dB,-7.17046129510481e+000°)
1.11686324778056e+003	(-1.76507502373494e+002dB,-7.18692752490091e+000°)
1.11943788346715e+003	(-1.76346683253874e+002dB,-7.20343316359468e+000°)
1.12201845430196e+003	(-1.76185860339702e+002dB,-7.21997830683542e+000°)
1.12460497396692e+003	(-1.76025033612975e+002dB,-7.23656305262492e+000°)
1.12719745617551e+003	(-1.75864203056127e+002dB,-7.25318749789818e+000°)
1.12979591467279e+003	(-1.75703368651182e+002dB,-7.26985173967385e+000°)
1.13240036323555e+003	(-1.75542530380147e+002dB,-7.28655587613249e+000°)
1.13501081567231e+003	(-1.75381688225064e+002dB,-7.30330000518796e+000°)
1.13762728582343e+003	(-1.75220842167694e+002dB,-7.32008422507050e+000°)
1.14024978756117e+003	(-1.75059992189848e+002dB,-7.33690863427244e+000°)
1.14287833478977e+003	(-1.74899138273253e+002dB,-7.35377333160984e+000°)
1.14551294144553e+003	(-1.74738280399434e+002dB,-7.37067841676150e+000°)
1.14815362149688e+003	(-1.74577418549995e+002dB,-7.38762398881191e+000°)
1.15080038894443e+003	(-1.74416552706265e+002dB,-7.40461014719449e+000°)
1.15345325782109e+003	(-1.74255682849640e+002dB,-7.42163699236586e+000°)
1.15611224219210e+003	(-1.74094808961472e+002dB,-7.43870462415325e+000°)
1.15877735615512e+003	(-1.73933931022920e+002dB,-7.45581314285310e+000°)
1.16144861384034e+003	(-1.73773049014910e+002dB,-7.47296265023844e+000°)
1.16412602941049e+003	(-1.73612162918489e+002dB,-7.49015324702545e+000°)
1.16680961706096e+003	(-1.73451272714646e+002dB,-7.50738503469384e+000°)
1.16949939101987e+003	(-1.73290378383995e+002dB,-7.52465811469839e+000°)
1.17219536554813e+003	(-1.73129479907551e+002dB,-7.54197258896056e+000°)
1.17489755493953e+003	(-1.72968577265737e+002dB,-7.55932856037128e+000°)
1.17760597352080e+003	(-1.72807670439174e+002dB,-7.57672613059125e+000°)
1.18032063565173e+003	(-1.72646759408223e+002dB,-7.59416540362133e+000°)
1.18304155572516e+003	(-1.72485844153327e+002dB,-7.61164648196985e+000°)
1.18576874816716e+003	(-1.72324924654696e+002dB,-7.62916946922734e+000°)
1.18850222743701e+003	(-1.72164000892532e+002dB,-7.64673446947370e+000°)
1.19124200802737e+003	(-1.72003072846942e+002dB,-7.66434158602694e+000°)
1.19398810446427e+003	(-1.71842140497774e+002dB,-7.68199092403947e+000°)
1.19674053130724e+003	(-1.71681203825037e+002dB,-7.69968258817134e+000°)
1.19949930314937e+003	(-1.71520262808516e+002dB,-7.71741668255748e+000°)
1.20226443461741e+003	(-1.71359317427860e+002dB,-7.73519331379633e+000°)
1.20503594037179e+003	(-1.71198367662705e+002dB,-7.75301258598664e+000°)
1.20781383510678e+003	(-1.71037413492524e+002dB,-7.77087460626083e+000°)
1.21059813355048e+003	(-1.70876454896738e+002dB,-7.78877948062345e+000°)
1.21338885046497e+003	(-1.70715491854704e+002dB,-7.80672731532003e+000°)
1.21618600064636e+003	(-1.70554524345599e+002dB,-7.82471821690530e+000°)
1.21898959892486e+003	(-1.70393552348540e+002dB,-7.84275229283119e+000°)
1.22179966016487e+003	(-1.70232575842436e+002dB,-7.86082965100295e+000°)
1.22461619926504e+003	(-1.70071594806389e+002dB,-7.87895039824722e+000°)
1.22743923115840e+003	(-1.69910609219164e+002dB,-7.89711464310879e+000°)
1.23026877081238e+003	(-1.69749619059410e+002dB,-7.91532249447396e+000°)
1.23310483322890e+003	(-1.69588624305837e+002dB,-7.93357406015068e+000°)
1.23594743344450e+003	(-1.69427624936870e+002dB,-7.95186944965010e+000°)
1.23879658653036e+003	(-1.69266620930940e+002dB,-7.97020877248557e+000°)
1.24165230759241e+003	(-1.69105612266454e+002dB,-7.98859213740184e+000°)
1.24451461177138e+003	(-1.68944598921523e+002dB,-8.00701965568193e+000°)
1.24738351424294e+003	(-1.68783580874278e+002dB,-8.02549143693178e+000°)
1.25025903021771e+003	(-1.68622558102750e+002dB,-8.04400759186099e+000°)
1.25314117494141e+003	(-1.68461530584796e+002dB,-8.06256823161720e+000°)
1.25602996369487e+003	(-1.68300498298248e+002dB,-8.08117346703139e+000°)
1.25892541179416e+003	(-1.68139461220793e+002dB,-8.09982341031456e+000°)
1.26182753459066e+003	(-1.67978419330018e+002dB,-8.11851817269335e+000°)
1.26473634747115e+003	(-1.67817372603362e+002dB,-8.13725786713502e+000°)
1.26765186585784e+003	(-1.67656321018277e+002dB,-8.15604260571999e+000°)
1.27057410520854e+003	(-1.67495264551961e+002dB,-8.17487250169792e+000°)
1.27350308101666e+003	(-1.67334203181612e+002dB,-8.19374766816507e+000°)
1.27643880881134e+003	(-1.67173136884185e+002dB,-8.21266821893351e+000°)
1.27938130415752e+003	(-1.67012065636781e+002dB,-8.23163426757450e+000°)
1.28233058265601e+003	(-1.66850989416132e+002dB,-8.25064592868013e+000°)
1.28528665994361e+003	(-1.66689908198984e+002dB,-8.26970331672643e+000°)
1.28824955169313e+003	(-1.66528821961899e+002dB,-8.28880654694827e+000°)
1.29121927361353e+003	(-1.66367730681437e+002dB,-8.30795573462524e+000°)
1.29419584144998e+003	(-1.66206634334018e+002dB,-8.32715099480724e+000°)
1.29717927098395e+003	(-1.66045532895796e+002dB,-8.34639244406296e+000°)
1.30016957803328e+003	(-1.65884426343107e+002dB,-8.36568019815807e+000°)
1.30316677845229e+003	(-1.65723314651898e+002dB,-8.38501437434154e+000°)
1.30617088813183e+003	(-1.65562197798100e+002dB,-8.40439508970285e+000°)
1.30918192299940e+003	(-1.65401075757585e+002dB,-8.42382246103297e+000°)
1.31219989901920e+003	(-1.65239948506032e+002dB,-8.44329660644242e+000°)
1.31522483219223e+003	(-1.65078816019088e+002dB,-8.46281764384304e+000°)
1.31825673855640e+003	(-1.64917678272141e+002dB,-8.48238569202430e+000°)
1.32129563418657e+003	(-1.64756535240614e+002dB,-8.50200086945009e+000°)
1.32434153519466e+003	(-1.64595386899799e+002dB,-8.52166329506729e+000°)
1.32739445772973e+003	(-1.64434233224757e+002dB,-8.54137308899825e+000°)
1.33045441797808e+003	(-1.64273074190524e+002dB,-8.56113037039962e+000°)
1.33352143216332e+003	(-1.64111909771957e+002dB,-8.58093526018659e+000°)
1.33659551654643e+003	(-1.63950739943921e+002dB,-8.60078787803725e+000°)
1.33967668742593e+003	(-1.63789564680982e+002dB,-8.62068834607884e+000°)
1.34276496113786e+003	(-1.63628383957730e+002dB,-8.64063678458188e+000°)
1.34586035405594e+003	(-1.63467197748559e+002dB,-8.66063331569869e+000°)
1.34896288259165e+003	(-1.63306006027739e+002dB,-8.68067806132926e+000°)
1.35207256319427e+003	(-1.63144808769503e+002dB,-8.70077114412348e+000°)
1.35518941235103e+003	(-1.62983605947813e+002dB,-8.72091268666453e+000°)
1.35831344658715e+003	(-1.62822397536656e+002dB,-8.74110281202334e+000°)
1.36144468246594e+003	(-1.62661183509831e+002dB,-8.76134164379892e+000°)
1.36458313658892e+003	(-1.62499963840990e+002dB,-8.78162930613777e+000°)
1.36772882559584e+003	(-1.62338738503665e+002dB,-8.80196592316490e+000°)
1.37088176616484e+003	(-1.62177507471310e+002dB,-8.82235161933168e+000°)
1.37404197501251e+003	(-1.62016270717244e+002dB,-8.84278651997858e+000°)
1.37720946889394e+003	(-1.61855028214605e+002dB,-8.86327075048409e+000°)
1.38038426460288e+003	(-1.61693779936491e+002dB,-8.88380443645766e+000°)
1.38356637897177e+003	(-1.61532525855722e+002dB,-8.90438770422241e+000°)
1.38675582887188e+003	(-1.61371265945180e+002dB,-8.92502068028124e+000°)
1.38995263121334e+003	(-1.61210000177465e+002dB,-8.94570349165691e+000°)
1.39315680294529e+003	(-1.61048728525141e+002dB,-8.96643626579666e+000°)
1.39636836105593e+003	(-1.60887450960590e+002dB,-8.98721913030476e+000°)
1.39958732257261e+003	(-1.60726167456071e+002dB,-9.00805221332648e+000°)
1.40281370456195e+003	(-1.60564877983744e+002dB,-9.02893564329435e+000°)
1.40604752412990e+003	(-1.60403582515591e+002dB,-9.04986954928016e+000°)
1.40928879842186e+003	(-1.60242281023476e+002dB,-9.07085406064408e+000°)
1.41253754462274e+003	(-1.60080973479135e+002dB,-9.09188930703249e+000°)
1.41579377995707e+003	(-1.59919659854203e+002dB,-9.11297541843462e+000°)
1.41905752168908e+003	(-1.59758340120084e+002dB,-9.13411252561041e+000°)
1.42232878712281e+003	(-1.59597014248160e+002dB,-9.15530075934565e+000°)
1.42560759360218e+003	(-1.59435682209602e+002dB,-9.17654025088695e+000°)
1.42889395851109e+003	(-1.59274343975467e+002dB,-9.19783113219561e+000°)
1.43218789927353e+003	(-1.59112999516691e+002dB,-9.21917353503449e+000°)
1.43548943335364e+003	(-1.58951648804004e+002dB,-9.24056759258178e+000°)
1.43879857825583e+003	(-1.58790291808080e+002dB,-9.26201343731832e+000°)
1.44211535152486e+003	(-1.58628928499429e+002dB,-9.28351120256682e+000°)
1.44543977074592e+003	(-1.58467558848375e+002dB,-9.30506102255959e+000°)
1.44877185354475e+003	(-1.58306182825195e+002dB,-9.32666303103123e+000°)
1.45211161758773e+003	(-1.58144800399925e+002dB,-9.34831736260304e+000°)
1.45545908058195e+003	(-1.57983411542464e+002dB,-9.37002415291813e+000°)
1.45881426027534e+003	(-1.57822016222657e+002dB,-9.39178353695146e+000°)
1.46217717445671e+003	(-1.57660614410118e+002dB,-9.41359565069755e+000°)
1.46554784095590e+003	(-1.57499206074385e+002dB,-9.43546063036526e+000°)
1.46892627764385e+003	(-1.57337791184733e+002dB,-9.45737861311897e+000°)
1.47231250243271e+003	(-1.57176369710486e+002dB,-9.47934973548246e+000°)
1.47570653327588e+003	(-1.57014941620602e+002dB,-9.50137413567544e+000°)
1.47910838816819e+003	(-1.56853506884059e+002dB,-9.52345195154285e+000°)
1.48251808514594e+003	(-1.56692065469618e+002dB,-9.54558332119429e+000°)
1.48593564228699e+003	(-1.56530617345832e+002dB,-9.56776838419782e+000°)
1.48936107771090e+003	(-1.56369162481260e+002dB,-9.59000727936236e+000°)
1.49279440957898e+003	(-1.56207700844140e+002dB,-9.61230014680091e+000°)
1.49623565609442e+003	(-1.56046232402676e+002dB,-9.63464712663901e+000°)
1.49968483550236e+003	(-1.55884757124885e+002dB,-9.65704835943135e+000°)
1.50314196609001e+003	(-1.55723274978608e+002dB,-9.67950398651234e+000°)
1.50660706618673e+003	(-1.55561785931531e+002dB,-9.70201414939551e+000°)
1.51008015416413e+003	(-1.55400289951268e+002dB,-9.72457898991571e+000°)
1.51356124843619e+003	(-1.55238787005152e+002dB,-9.74719865076139e+000°)
1.51705036745932e+003	(-1.55077277060455e+002dB,-9.76987327488763e+000°)
1.52054752973248e+003	(-1.54915760084278e+002dB,-9.79260300545219e+000°)
1.52405275379728e+003	(-1.54754236043497e+002dB,-9.81538798650361e+000°)
1.52756605823806e+003	(-1.54592704904910e+002dB,-9.83822836213805e+000°)
1.53108746168201e+003	(-1.54431166635106e+002dB,-9.86112427741972e+000°)
1.53461698279928e+003	(-1.54269621200559e+002dB,-9.88407587734856e+000°)
1.53815464030302e+003	(-1.54108068567562e+002dB,-9.90708330754444e+000°)
1.54170045294954e+003	(-1.53946508702227e+002dB,-9.93014671423455e+000°)
1.54525443953840e+003	(-1.53784941570502e+002dB,-9.95326624418572e+000°)
1.54881661891247e+003	(-1.53623367138197e+002dB,-9.97644204436944e+000°)
1.55238700995807e+003	(-1.53461785370970e+002dB,-9.99967426233891e+000°)
1.55596563160506e+003	(-1.53300196234287e+002dB,-1.00229630461772e+001°)
1.55955250282694e+003	(-1.53138599693434e+002dB,-1.00463085444734e+001°)
1.56314764264094e+003	(-1.52976995713552e+002dB,-1.00697109061191e+001°)
1.56675107010813e+003	(-1.52815384259655e+002dB,-1.00931702805371e+001°)
1.57036280433354e+003	(-1.52653765296506e+002dB,-1.01166868179104e+001°)
1.57398286446620e+003	(-1.52492138788767e+002dB,-1.01402606685313e+001°)
1.57761126969933e+003	(-1.52330504700883e+002dB,-1.01638919835567e+001°)
1.58124803927037e+003	(-1.52168862997183e+002dB,-1.01875809139650e+001°)
1.58489319246110e+003	(-1.52007213641771e+002dB,-1.02113276119979e+001°)
1.58854674859776e+003	(-1.51845556598587e+002dB,-1.02351322302439e+001°)
1.59220872705115e+003	(-1.51683891831430e+002dB,-1.02589949212935e+001°)
1.59587914723672e+003	(-1.51522219303911e+002dB,-1.02829158387151e+001°)
1.59955802861465e+003	(-1.51360538979458e+002dB,-1.03068951362962e+001°)
1.60324539069002e+003	(-1.51198850821306e+002dB,-1.03309329686371e+001°)
1.60694125301286e+003	(-1.51037154792554e+002dB,-1.03550294906360e+001°)
1.61064563517825e+003	(-1.50875450856117e+002dB,-1.03791848574952e+001°)
1.61435855682647e+003	(-1.50713738974689e+002dB,-1.04033992254602e+001°)
1.61808003764305e+003	(-1.50552019110818e+002dB,-1.04276727508282e+001°)
1.62181009735891e+003	(-1.50390291226898e+002dB,-1.04520055905558e+001°)
1.62554875575047e+003	(-1.50228555285071e+002dB,-1.04763979021882e+001°)
1.62929603263970e+003	(-1.50066811247370e+002dB,-1.05008498436999e+001°)
1.63305194789432e+003	(-1.49905059075590e+002dB,-1.05253615736591e+001°)
1.63681652142779e+003	(-1.49743298731393e+002dB,-1.05499332510263e+001°)
1.64058977319952e+003	(-1.49581530176213e+002dB,-1.05745650353873e+001°)
1.64437172321491e+003	(-1.49419753371302e+002dB,-1.05992570870404e+001°)
1.64816239152549e+003	(-1.49257968277758e+002dB,-1.06240095663652e+001°)
1.65196179822900e+003	(-1.49096174856469e+002dB,-1.06488226347135e+001°)
1.65576996346951e+003	(-1.48934373068122e+002dB,-1.06736964536561e+001°)
1.65958690743754e+003	(-1.48772562873254e+002dB,-1.06986311855324e+001°)
1.66341265037015e+003	(-1.48610744232179e+002dB,-1.07236269930099e+001°)
1.66724721255104e+003	(-1.48448917105016e+002dB,-1.07486840395974e+001°)
1.67109061431069e+003	(-1.48287081451704e+002dB,-1.07738024891269e+001°)
1.67494287602642e+003	(-1.48125237232009e+002dB,-1.07989825059112e+001°)
1.67880401812254e+003	(-1.47963384405475e+002dB,-1.08242242548833e+001°)
1.68267406107045e+003	(-1.47801522931436e+002dB,-1.08495279018789e+001°)
1.68655302538872e+003	(-1.47639652769086e+002dB,-1.08748936126465e+001°)
1.69044093164324e+003	(-1.47477773877379e+002dB,-1.09003215538967e+001°)
1.69433780044731e+003	(-1.47315886215067e+002dB,-1.09258118929225e+001°)
1.69824365246172e+003	(-1.47153989740728e+002dB,-1.09513647974501e+001°)
1.70215850839493e+003	(-1.46992084412722e+002dB,-1.09769804358136e+001°)
1.70608238900310e+003	(-1.46830170189234e+002dB,-1.10026589768778e+001°)
1.71001531509027e+003	(-1.46668247028196e+002dB,-1.10284005901918e+001°)
1.71395730750840e+003	(-1.46506314887390e+002dB,-1.10542054457396e+001°)
1.71790838715757e+003	(-1.46344373724372e+002dB,-1.10800737140763e+001°)
1.72186857498598e+003	(-1.46182423496488e+002dB,-1.11060055665034e+001°)
1.72583789199018e+003	(-1.46020464160874e+002dB,-1.11320011747747e+001°)
1.72981635921508e+003	(-1.45858495674478e+002dB,-1.11580607112629e+001°)
1.73380399775412e+003	(-1.45696517994031e+002dB,-1.11841843489726e+001°)
1.73780082874935e+003	(-1.45534531076054e+002dB,-1.12103722612726e+001°)
1.74180687339159e+003	(-1.45372534876846e+002dB,-1.12366246224591e+001°)
1.74582215292048e+003	(-1.45210529352511e+002dB,-1.12629416072313e+001°)
1.74984668862463e+003	(-1.45048514458945e+002dB,-1.12893233908127e+001°)
1.75388050184174e+003	(-1.44886490151796e+002dB,-1.13157701494076e+001°)
1.75792361395867e+003	(-1.44724456386544e+002dB,-1.13422820592420e+001°)
1.76197604641161e+003	(-1.44562413118421e+002dB,-1.13688592976086e+001°)
1.76603782068614e+003	(-1.44400360302456e+002dB,-1.13955020422412e+001°)
1.77010895831740e+003	(-1.44238297893457e+002dB,-1.14222104714321e+001°)
1.77418948089014e+003	(-1.44076225846000e+002dB,-1.14489847643733e+001°)
1.77827941003890e+003	(-1.43914144114457e+002dB,-1.14758251004850e+001°)
1.78237876744807e+003	(-1.43752052652979e+002dB,-1.15027316600355e+001°)
1.78648757485203e+003	(-1.43589951415494e+002dB,-1.15297046238113e+001°)
1.79060585403527e+003	(-1.43427840355695e+002dB,-1.15567441734044e+001°)
1.79473362683250e+003	(-1.43265719427059e+002dB,-1.15838504907773e+001°)
1.79887091512876e+003	(-1.43103588582837e+002dB,-1.16110237588096e+001°)
1.80301774085954e+003	(-1.42941447776058e+002dB,-1.16382641607191e+001°)
1.80717412601090e+003	(-1.42779296959501e+002dB,-1.16655718806751e+001°)
1.81134009261958e+003	(-1.42617136085741e+002dB,-1.16929471032733e+001°)
1.81551566277311e+003	(-1.42454965107115e+002dB,-1.17203900137711e+001°)
1.81970085860996e+003	(-1.42292783975720e+002dB,-1.17479007981881e+001°)
1.82389570231961e+003	(-1.42130592643432e+002dB,-1.17754796430884e+001°)
1.82810021614272e+003	(-1.41968391061897e+002dB,-1.18031267356453e+001°)
1.83231442237119e+003	(-1.41806179182499e+002dB,-1.18308422639215e+001°)
1.83653834334832e+003	(-1.41643956956413e+002dB,-1.18586264163763e+001°)
1.84077200146893e+003	(-1.41481724334553e+002dB,-1.18864793824108e+001°)
1.84501541917945e+003	(-1.41319481267622e+002dB,-1.19144013517674e+001°)
1.84926861897805e+003	(-1.41157227706056e+002dB,-1.19423925151340e+001°)
1.85353162341478e+003	(-1.40994963600091e+002dB,-1.19704530635980e+001°)
1.85780445509167e+003	(-1.40832688899651e+002dB,-1.19985831893470e+001°)
1.86208713666284e+003	(-1.40670403554492e+002dB,-1.20267830847703e+001°)
1.86637969083464e+003	(-1.40508107514055e+002dB,-1.20550529433970e+001°)
1.87068214036577e+003	(-1.40345800727611e+002dB,-1.20833929589531e+001°)
