Freq.	V(vout)
1.00000000000000e+002	(-2.80513758670326e+001dB,8.84553808666687e+001°)
1.02329299228075e+002	(-2.78508883881561e+001dB,8.84193659194501e+001°)
1.04712854805090e+002	(-2.76503779262140e+001dB,8.83825037238181e+001°)
1.07151930523761e+002	(-2.74498433971953e+001dB,8.83447740771891e+001°)
1.09647819614318e+002	(-2.72492836659192e+001dB,8.83061562698085e+001°)
1.12201845430196e+002	(-2.70486975436164e+001dB,8.82666290703908e+001°)
1.14815362149688e+002	(-2.68480837853941e+001dB,8.82261707111876e+001°)
1.17489755493953e+002	(-2.66474410875824e+001dB,8.81847588725463e+001°)
1.20226443461741e+002	(-2.64467680849540e+001dB,8.81423706668911e+001°)
1.23026877081238e+002	(-2.62460633478112e+001dB,8.80989826220676e+001°)
1.25892541179417e+002	(-2.60453253789361e+001dB,8.80545706640954e+001°)
1.28824955169313e+002	(-2.58445526103947e+001dB,8.80091100992122e+001°)
1.31825673855641e+002	(-2.56437434001891e+001dB,8.79625755952415e+001°)
1.34896288259165e+002	(-2.54428960287519e+001dB,8.79149411622028e+001°)
1.38038426460288e+002	(-2.52420086952722e+001dB,8.78661801321412e+001°)
1.41253754462275e+002	(-2.50410795138476e+001dB,8.78162651381458e+001°)
1.44543977074593e+002	(-2.48401065094535e+001dB,8.77651680924780e+001°)
1.47910838816821e+002	(-2.46390876137190e+001dB,8.77128601637975e+001°)
1.51356124843621e+002	(-2.44380206605039e+001dB,8.76593117534196e+001°)
1.54881661891248e+002	(-2.42369033812623e+001dB,8.76044924705343e+001°)
1.58489319246111e+002	(-2.40357334001868e+001dB,8.75483711063459e+001°)
1.62181009735893e+002	(-2.38345082291215e+001dB,8.74909156070855e+001°)
1.65958690743756e+002	(-2.36332252622299e+001dB,8.74320930457798e+001°)
1.69824365246174e+002	(-2.34318817704114e+001dB,8.73718695927482e+001°)
1.73780082874937e+002	(-2.32304748954479e+001dB,8.73102104847487e+001°)
1.77827941003892e+002	(-2.30290016438728e+001dB,8.72470799926540e+001°)
1.81970085860998e+002	(-2.28274588805463e+001dB,8.71824413876174e+001°)
1.86208713666287e+002	(-2.26258433219224e+001dB,8.71162569055892e+001°)
1.90546071796324e+002	(-2.24241515289948e+001dB,8.70484877101296e+001°)
1.94984459975804e+002	(-2.22223798999036e+001dB,8.69790938533567e+001°)
1.99526231496888e+002	(-2.20205246621888e+001dB,8.69080342349607e+001°)
2.04173794466953e+002	(-2.18185818646708e+001dB,8.68352665591284e+001°)
2.08929613085404e+002	(-2.16165473689432e+001dB,8.67607472892559e+001°)
2.13796208950223e+002	(-2.14144168404545e+001dB,8.66844316003094e+001°)
2.18776162394955e+002	(-2.12121857391635e+001dB,8.66062733286605e+001°)
2.23872113856834e+002	(-2.10098493097437e+001dB,8.65262249192613e+001°)
2.29086765276777e+002	(-2.08074025713172e+001dB,8.64442373699451e+001°)
2.34422881531992e+002	(-2.06048403066937e+001dB,8.63602601726850e+001°)
2.39883291901949e+002	(-2.04021570510916e+001dB,8.62742412515936e+001°)
2.45470891568503e+002	(-2.01993470803141e+001dB,8.61861268974423e+001°)
2.51188643150958e+002	(-1.99964043983563e+001dB,8.60958616984587e+001°)
2.57039578276886e+002	(-1.97933227244127e+001dB,8.60033884671415e+001°)
2.63026799189538e+002	(-1.95900954792573e+001dB,8.59086481628270e+001°)
2.69153480392691e+002	(-1.93867157709653e+001dB,8.58115798096747e+001°)
2.75422870333816e+002	(-1.91831763799449e+001dB,8.57121204097896e+001°)
2.81838293126445e+002	(-1.89794697432428e+001dB,8.56102048510857e+001°)
2.88403150312660e+002	(-1.87755879380922e+001dB,8.55057658095512e+001°)
2.95120922666638e+002	(-1.85715226646609e+001dB,8.53987336454664e+001°)
3.01995172040201e+002	(-1.83672652279661e+001dB,8.52890362931725e+001°)
3.09029543251358e+002	(-1.81628065189102e+001dB,8.51765991438633e+001°)
3.16227766016837e+002	(-1.79581369943980e+001dB,8.50613449209272e+001°)
3.23593656929628e+002	(-1.77532466564894e+001dB,8.49431935472398e+001°)
3.31131121482590e+002	(-1.75481250305404e+001dB,8.48220620038091e+001°)
3.38844156139202e+002	(-1.73427611422844e+001dB,8.46978641791212e+001°)
3.46736850452531e+002	(-1.71371434938023e+001dB,8.45705107084429e+001°)
3.54813389233575e+002	(-1.69312600383272e+001dB,8.44399088023240e+001°)
3.63078054770101e+002	(-1.67250981538291e+001dB,8.43059620634355e+001°)
3.71535229097172e+002	(-1.65186446153213e+001dB,8.41685702908210e+001°)
3.80189396320560e+002	(-1.63118855658279e+001dB,8.40276292705656e+001°)
3.89045144994280e+002	(-1.61048064859488e+001dB,8.38830305517771e+001°)
3.98107170553496e+002	(-1.58973921619599e+001dB,8.37346612066941e+001°)
4.07380277804112e+002	(-1.56896266523781e+001dB,8.35824035736185e+001°)
4.16869383470335e+002	(-1.54814932529232e+001dB,8.34261349812491e+001°)
4.26579518801592e+002	(-1.52729744598051e+001dB,8.32657274528804e+001°)
4.36515832240165e+002	(-1.50640519312632e+001dB,8.31010473887520e+001°)
4.46683592150962e+002	(-1.48547064472816e+001dB,8.29319552247187e+001°)
4.57088189614874e+002	(-1.46449178674063e+001dB,8.27583050651994e+001°)
4.67735141287197e+002	(-1.44346650865845e+001dB,8.25799442881894e+001°)
4.78630092322637e+002	(-1.42239259889514e+001dB,8.23967131199041e+001°)
4.89778819368445e+002	(-1.40126773994860e+001dB,8.22084441763800e+001°)
5.01187233627271e+002	(-1.38008950334603e+001dB,8.20149619691088e+001°)
5.12861383991364e+002	(-1.35885534436096e+001dB,8.18160823714687e+001°)
5.24807460249771e+002	(-1.33756259649534e+001dB,8.16116120424289e+001°)
5.37031796370251e+002	(-1.31620846572035e+001dB,8.14013478036066e+001°)
5.49540873857623e+002	(-1.29479002447007e+001dB,8.11850759654003e+001°)
5.62341325190348e+002	(-1.27330420538353e+001dB,8.09625715974432e+001°)
5.75439937337155e+002	(-1.25174779479138e+001dB,8.07335977381673e+001°)
5.88843655355587e+002	(-1.23011742594560e+001dB,8.04979045376854e+001°)
6.02559586074356e+002	(-1.20840957199217e+001dB,8.02552283276294e+001°)
6.16595001861481e+002	(-1.18662053868968e+001dB,8.00052906108669e+001°)
6.30957344480192e+002	(-1.16474645687981e+001dB,7.97477969632924e+001°)
6.45654229034654e+002	(-1.14278327471937e+001dB,7.94824358390213e+001°)
6.60693448007594e+002	(-1.12072674968901e+001dB,7.92088772693873e+001°)
6.76082975391980e+002	(-1.09857244039910e+001dB,7.89267714450803e+001°)
6.91830970918935e+002	(-1.07631569822110e+001dB,7.86357471695858e+001°)
7.07945784384136e+002	(-1.05395165878123e+001dB,7.83354101707564e+001°)
7.24435960074988e+002	(-1.03147523336446e+001dB,7.80253412559020e+001°)
7.41310241300916e+002	(-1.00888110028999e+001dB,7.77050942940880e+001°)
7.58577575029182e+002	(-9.86163696335267e+000dB,7.73741940075231e+001°)
7.76247116628690e+002	(-9.63317208305411e+000dB,7.70321335518421e+001°)
7.94328234724279e+002	(-9.40335564868137e+000dB,7.66783718627652e+001°)
8.12830516164097e+002	(-9.17212428803550e+000dB,7.63123307440633e+001°)
8.31763771102669e+002	(-8.93941189851950e+000dB,7.59333916688676e+001°)
8.51138038202374e+002	(-8.70514958385898e+000dB,7.55408922631695e+001°)
8.70963589956078e+002	(-8.46926560182874e+000dB,7.51341224367804e+001°)
8.91250938133743e+002	(-8.23168532637091e+000dB,7.47123201231084e+001°)
9.12010839355907e+002	(-7.99233122823456e+000dB,7.42746665847248e+001°)
9.33254300796988e+002	(-7.75112287917650e+000dB,7.38202812369113e+001°)
9.54992586021433e+002	(-7.50797698585750e+000dB,7.33482159361489e+001°)
9.77237220955808e+002	(-7.26280746090378e+000dB,7.28574486748307e+001°)
9.99999999999997e+002	(-7.01552554021647e+000dB,7.23468766173554e+001°)
1.02329299228075e+003	(-6.76603995757235e+000dB,7.18153084063401e+001°)
1.04712854805090e+003	(-6.51425718993578e+000dB,7.12614556609121e+001°)
1.07151930523760e+003	(-6.26008178978451e+000dB,7.06839235822627e+001°)
1.09647819614318e+003	(-6.00341682424698e+000dB,7.00812005749837e+001°)
1.12201845430196e+003	(-5.74416444508647e+000dB,6.94516467866495e+001°)
1.14815362149688e+003	(-5.48222661869507e+000dB,6.87934814631725e+001°)
1.17489755493953e+003	(-5.21750605146670e+000dB,6.81047690145647e+001°)
1.20226443461741e+003	(-4.94990735340440e+000dB,6.73834036859427e+001°)
1.23026877081238e+003	(-4.67933849183593e+000dB,6.66270927337107e+001°)
1.25892541179416e+003	(-4.40571259793269e+000dB,6.58333380189941e+001°)
1.28824955169313e+003	(-4.12895020165493e+000dB,6.49994159528188e+001°)
1.31825673855640e+003	(-3.84898198609637e+000dB,6.41223557644477e+001°)
1.34896288259165e+003	(-3.56575217028467e+000dB,6.31989161215077e+001°)
1.38038426460288e+003	(-3.27922265056494e+000dB,6.22255602156884e+001°)
1.41253754462275e+003	(-2.98937805488680e+000dB,6.11984295512637e+001°)
1.44543977074592e+003	(-2.69623189153313e+000dB,6.01133168486478e+001°)
1.47910838816820e+003	(-2.39983400355972e+000dB,5.89656387190593e+001°)
1.51356124843620e+003	(-2.10027957126634e+000dB,5.77504091008245e+001°)
1.54881661891248e+003	(-1.79771993513568e+000dB,5.64622148999426e+001°)
1.58489319246111e+003	(-1.49237553696325e+000dB,5.50951958790358e+001°)
1.62181009735892e+003	(-1.18455129106036e+000dB,5.36430316258746e+001°)
1.65958690743755e+003	(-8.74654690708746e-001dB,5.20989394420920e+001°)
1.69824365246174e+003	(-5.63216913037703e-001dB,5.04556882558234e+001°)
1.73780082874937e+003	(-2.50917087601420e-001dB,4.87056351926151e+001°)
1.77827941003892e+003	(6.13902878780009e-002dB,4.68407932128294e+001°)
1.81970085860998e+003	(3.72645102962076e-001dB,4.48529401469174e+001°)
1.86208713666286e+003	(6.81549344256266e-001dB,4.27337813225535e+001°)
1.90546071796324e+003	(9.86534215074904e-001dB,4.04751793928808e+001°)
1.94984459975804e+003	(1.28572903625509e+000dB,3.80694653120351e+001°)
1.99526231496887e+003	(1.57693546319330e+000dB,3.55098427312611e+001°)
2.04173794466952e+003	(1.85761190769892e+000dB,3.27908931769325e+001°)
2.08929613085403e+003	(2.12487442971646e+000dB,2.99091798230689e+001°)
2.13796208950222e+003	(2.37552144144906e+000dB,2.68639322763998e+001°)
2.18776162394954e+003	(2.60608984213175e+000dB,2.36577731974670e+001°)
2.23872113856833e+003	(2.81294902860847e+000dB,2.02974212500453e+001°)
2.29086765276776e+003	(2.99243596362024e+000dB,1.67942781012378e+001°)
2.34422881531991e+003	(3.14102878785191e+000dB,1.31647875969093e+001°)
2.39883291901948e+003	(3.25554868246797e+000dB,9.43045281115511e+000°)
2.45470891568502e+003	(3.33337118975866e+000dB,5.61742076312285e+000°)
2.51188643150957e+003	(3.37262133457824e+000dB,1.75559903505265e+000°)
2.57039578276885e+003	(3.37232439306215e+000dB,-2.12265312484747e+000°)
2.63026799189537e+003	(3.33248799919328e+000dB,-5.98413238499044e+000°)
2.69153480392690e+003	(3.25410149313032e+000dB,-9.79650552071573e+000°)
2.75422870333815e+003	(3.13905262545018e+000dB,-1.35299137515146e+001°)
2.81838293126444e+003	(2.98997590856727e+000dB,-1.71582758810156e+001°)
2.88403150312659e+003	(2.81005703452482e+000dB,-2.06601646209712e+001°)
2.95120922666637e+003	(2.60282151917522e+000dB,-2.40192148171540e+001°)
3.01995172040200e+003	(2.37193315128334e+000dB,-2.72241003877430e+001°)
3.09029543251358e+003	(2.12102091429227e+000dB,-3.02681707792850e+001°)
3.16227766016836e+003	(1.85354454472883e+000dB,-3.31488613845154e+001°)
3.23593656929627e+003	(1.57270113633738e+000dB,-3.58669896001471e+001°)
3.31131121482590e+003	(1.28136954000117e+000dB,-3.84260284234753e+001°)
3.38844156139201e+003	(9.82086082060373e-001dB,-4.08314226742628e+001°)
3.46736850452530e+003	(6.77043977834878e-001dB,-4.30899866456207e+001°)
3.54813389233574e+003	(3.68109109772034e-001dB,-4.52094004828338e+001°)
3.63078054770100e+003	(5.68459250128097e-002dB,-4.71978072898706e+001°)
3.71535229097171e+003	(-2.55451414739173e-001dB,-4.90635034958027e+001°)
3.80189396320559e+003	(-5.67726146633860e-001dB,-5.08147101612856e+001°)
3.89045144994279e+003	(-8.79126638691570e-001dB,-5.24594112717604e+001°)
3.98107170553495e+003	(-1.18897618397163e+000dB,-5.40052454235599e+001°)
4.07380277804111e+003	(-1.49674563143803e+000dB,-5.54594387353877e+001°)
4.16869383470333e+003	(-1.80202916615763e+000dB,-5.68287686834022e+001°)
4.26579518801591e+003	(-2.10452325178102e+000dB,-5.81195504803559e+001°)
4.36515832240164e+003	(-2.40400856798212e+000dB,-5.93376393897826e+001°)
4.46683592150961e+003	(-2.70033467867993e+000dB,-6.04884438928588e+001°)
4.57088189614873e+003	(-2.99340712554301e+000dB,-6.15769458845833e+001°)
4.67735141287196e+003	(-3.28317663498217e+000dB,-6.26077250817318e+001°)
4.78630092322636e+003	(-3.56963014122918e+000dB,-6.35849856089502e+001°)
4.89778819368444e+003	(-3.85278335350602e+000dB,-6.45125833283213e+001°)
5.01187233627270e+003	(-4.13267462543395e+000dB,-6.53940529278106e+001°)
5.12861383991362e+003	(-4.40935991588562e+000dB,-6.62326341168550e+001°)
5.24807460249770e+003	(-4.68290866017764e+000dB,-6.70312965200302e+001°)
5.37031796370250e+003	(-4.95340039767735e+000dB,-6.77927630338003e+001°)
5.49540873857622e+003	(-5.22092202603928e+000dB,-6.85195315341120e+001°)
5.62341325190346e+003	(-5.48556557331695e+000dB,-6.92138949072681e+001°)
5.75439937337154e+003	(-5.74742639722877e+000dB,-6.98779594333748e+001°)
5.88843655355586e+003	(-6.00660173616943e+000dB,-7.05136615883148e+001°)
6.02559586074354e+003	(-6.26318954945482e+000dB,-7.11227833524034e+001°)
6.16595001861479e+003	(-6.51728759507421e+000dB,-7.17069661259514e+001°)
6.30957344480190e+003	(-6.76899270221985e+000dB,-7.22677233569042e+001°)
6.45654229034652e+003	(-7.01840020333028e+000dB,-7.28064519859172e+001°)
6.60693448007592e+003	(-7.26560349656826e+000dB,-7.33244428112780e+001°)
6.76082975391978e+003	(-7.51069371476811e+000dB,-7.38228898711190e+001°)
6.91830970918932e+003	(-7.75375948111633e+000dB,-7.43028989343045e+001°)
7.07945784384134e+003	(-7.99488673530653e+000dB,-7.47654951847213e+001°)
7.24435960074986e+003	(-8.23415861679141e+000dB,-7.52116301768798e+001°)
7.41310241300913e+003	(-8.47165539411994e+000dB,-7.56421881340220e+001°)
7.58577575029179e+003	(-8.70745443130272e+000dB,-7.60579916534590e+001°)
7.76247116628687e+003	(-8.94163018375949e+000dB,-7.64598068777732e+001°)
7.94328234724277e+003	(-9.17425421773041e+000dB,-7.68483481848519e+001°)
8.12830516164094e+003	(-9.40539524812730e+000dB,-7.72242824444765e+001°)
8.31763771102666e+003	(-9.63511919070696e+000dB,-7.75882328844211e+001°)
8.51138038202371e+003	(-9.86348922519014e+000dB,-7.79407826046549e+001°)
8.70963589956075e+003	(-1.00905658665695e+001dB,-7.82824777743169e+001°)
8.91250938133740e+003	(-1.03164070423549e+001dB,-7.86138305425650e+001°)
9.12010839355904e+003	(-1.05410681739236e+001dB,-7.89353216912107e+001°)
9.33254300796985e+003	(-1.07646022604906e+001dB,-7.92474030541888e+001°)
9.54992586021430e+003	(-1.09870599644986e+001dB,-7.95504997263243e+001°)
9.77237220955804e+003	(-1.12084896974639e+001dB,-7.98450120815670e+001°)
9.99999999999993e+003	(-1.14289377055061e+001dB,-8.01313176187934e+001°)
1.02329299228075e+004	(-1.16484481539545e+001dB,-8.04097726514421e+001°)
1.04712854805089e+004	(-1.18670632105509e+001dB,-8.06807138555914e+001°)
1.07151930523760e+004	(-1.20848231268796e+001dB,-8.09444596896205e+001°)
1.09647819614318e+004	(-1.23017663177448e+001dB,-8.12013116972811e+001°)
1.12201845430196e+004	(-1.25179294382866e+001dB,-8.14515557048153e+001°)
1.14815362149688e+004	(-1.27333474586882e+001dB,-8.16954629217233e+001°)
1.17489755493952e+004	(-1.29480537363736e+001dB,-8.19332909538260e+001°)
1.20226443461740e+004	(-1.31620800856372e+001dB,-8.21652847364266e+001°)
1.23026877081237e+004	(-1.33754568446759e+001dB,-8.23916773946304e+001°)
1.25892541179416e+004	(-1.35882129400199e+001dB,-8.26126910371851e+001°)
1.28824955169313e+004	(-1.38003759483820e+001dB,-8.28285374896216e+001°)
1.31825673855640e+004	(-1.40119721559569e+001dB,-8.30394189719060e+001°)
1.34896288259164e+004	(-1.42230266152174e+001dB,-8.32455287253414e+001°)
1.38038426460288e+004	(-1.44335631992625e+001dB,-8.34470515930086e+001°)
1.41253754462274e+004	(-1.46436046537811e+001dB,-8.36441645576460e+001°)
1.44543977074592e+004	(-1.48531726466977e+001dB,-8.38370372405013e+001°)
1.47910838816820e+004	(-1.50622878155740e+001dB,-8.40258323643839e+001°)
1.51356124843620e+004	(-1.52709698128363e+001dB,-8.42107061838426e+001°)
1.54881661891247e+004	(-1.54792373489086e+001dB,-8.43918088851341e+001°)
1.58489319246110e+004	(-1.56871082333224e+001dB,-8.45692849584226e+001°)
1.62181009735892e+004	(-1.58945994138796e+001dB,-8.47432735444248e+001°)
1.65958690743755e+004	(-1.61017270139441e+001dB,-8.49139087575286e+001°)
1.69824365246173e+004	(-1.63085063679318e+001dB,-8.50813199872342e+001°)
1.73780082874936e+004	(-1.65149520550710e+001dB,-8.52456321796161e+001°)
1.77827941003891e+004	(-1.67210779315040e+001dB,-8.54069661003537e+001°)
1.81970085860997e+004	(-1.69268971607939e+001dB,-8.55654385807493e+001°)
1.86208713666285e+004	(-1.71324222429015e+001dB,-8.57211627480313e+001°)
1.90546071796323e+004	(-1.73376650416970e+001dB,-8.58742482411453e+001°)
1.94984459975803e+004	(-1.75426368110629e+001dB,-8.60248014131203e+001°)
1.99526231496887e+004	(-1.77473482196463e+001dB,-8.61729255210182e+001°)
2.04173794466951e+004	(-1.79518093743171e+001dB,-8.63187209043921e+001°)
2.08929613085402e+004	(-1.81560298423811e+001dB,-8.64622851531060e+001°)
2.13796208950222e+004	(-1.83600186726004e+001dB,-8.66037132652943e+001°)
2.18776162394954e+004	(-1.85637844150672e+001dB,-8.67430977961871e+001°)
2.23872113856832e+004	(-1.87673351399759e+001dB,-8.68805289984616e+001°)
2.29086765276776e+004	(-1.89706784553377e+001dB,-8.70160949547356e+001°)
2.34422881531990e+004	(-1.91738215236756e+001dB,-8.71498817027691e+001°)
2.39883291901947e+004	(-1.93767710777399e+001dB,-8.72819733538886e+001°)
2.45470891568501e+004	(-1.95795334352809e+001dB,-8.74124522051306e+001°)
2.51188643150956e+004	(-1.97821145129106e+001dB,-8.75413988455341e+001°)
2.57039578276884e+004	(-1.99845198390871e+001dB,-8.76688922570082e+001°)
2.63026799189536e+004	(-2.01867545662524e+001dB,-8.77950099101421e+001°)
2.69153480392689e+004	(-2.03888234821498e+001dB,-8.79198278553293e+001°)
2.75422870333814e+004	(-2.05907310203499e+001dB,-8.80434208095130e+001°)
2.81838293126443e+004	(-2.07924812700079e+001dB,-8.81658622388701e+001°)
2.88403150312658e+004	(-2.09940779848768e+001dB,-8.82872244377075e+001°)
2.95120922666636e+004	(-2.11955245915969e+001dB,-8.84075786038369e+001°)
3.01995172040199e+004	(-2.13968241972823e+001dB,-8.85269949106633e+001°)
3.09029543251357e+004	(-2.15979795964224e+001dB,-8.86455425762182e+001°)
3.16227766016835e+004	(-2.17989932771149e+001dB,-8.87632899293387e+001°)
3.23593656929626e+004	(-2.19998674266471e+001dB,-8.88803044731957e+001°)
3.31131121482588e+004	(-2.22006039364387e+001dB,-8.89966529463399e+001°)
3.38844156139200e+004	(-2.24012044063584e+001dB,-8.91124013814446e+001°)
3.46736850452529e+004	(-2.26016701484266e+001dB,-8.92276151618861e+001°)
3.54813389233573e+004	(-2.28020021899157e+001dB,-8.93423590763232e+001°)
3.63078054770098e+004	(-2.30022012758539e+001dB,-8.94566973713935e+001°)
3.71535229097169e+004	(-2.32022678709432e+001dB,-8.95706938026634e+001°)
3.80189396320558e+004	(-2.34022021608976e+001dB,-8.96844116839414e+001°)
3.89045144994277e+004	(-2.36020040532068e+001dB,-8.97979139350640e+001°)
3.98107170553494e+004	(-2.38016731773298e+001dB,-8.99112631282544e+001°)
4.07380277804109e+004	(-2.40012088843229e+001dB,-9.00245215331448e+001°)
4.16869383470332e+004	(-2.42006102459042e+001dB,-9.01377511605561e+001°)
4.26579518801589e+004	(-2.43998760529560e+001dB,-9.02510138051013e+001°)
4.36515832240162e+004	(-2.45990048134657e+001dB,-9.03643710866996e+001°)
4.46683592150959e+004	(-2.47979947499057e+001dB,-9.04778844910652e+001°)
4.57088189614871e+004	(-2.49968437960502e+001dB,-9.05916154092280e+001°)
4.67735141287194e+004	(-2.51955495932281e+001dB,-9.07056251761583e+001°)
4.78630092322634e+004	(-2.53941094860071e+001dB,-9.08199751085278e+001°)
4.89778819368442e+004	(-2.55925205173086e+001dB,-9.09347265416867e+001°)
5.01187233627268e+004	(-2.57907794229459e+001dB,-9.10499408658659e+001°)
5.12861383991360e+004	(-2.59888826255831e+001dB,-9.11656795616774e+001°)
5.24807460249768e+004	(-2.61868262281069e+001dB,-9.12820042349280e+001°)
5.37031796370248e+004	(-2.63846060064079e+001dB,-9.13989766507922e+001°)
5.49540873857620e+004	(-2.65822174015599e+001dB,-9.15166587673695e+001°)
5.62341325190344e+004	(-2.67796555113961e+001dB,-9.16351127686520e+001°)
