Freq.	V(vin_5)
1.00000000000000e+002	(2.50374948392414e+001dB,1.78787628607813e+002°)
1.02329299228075e+002	(2.50375685746208e+001dB,1.78759374120702e+002°)
1.04712854805090e+002	(2.50376457830594e+001dB,1.78730460448451e+002°)
1.07151930523761e+002	(2.50377266280463e+001dB,1.78700872161299e+002°)
1.09647819614318e+002	(2.50378112807566e+001dB,1.78670593464683e+002°)
1.12201845430196e+002	(2.50378999204129e+001dB,1.78639608190363e+002°)
1.14815362149688e+002	(2.50379927346615e+001dB,1.78607899787299e+002°)
1.17489755493953e+002	(2.50380899199685e+001dB,1.78575451312293e+002°)
1.20226443461741e+002	(2.50381916820318e+001dB,1.78542245420379e+002°)
1.23026877081238e+002	(2.50382982362146e+001dB,1.78508264354957e+002°)
1.25892541179417e+002	(2.50384098079976e+001dB,1.78473489937658e+002°)
1.28824955169313e+002	(2.50385266334527e+001dB,1.78437903557935e+002°)
1.31825673855641e+002	(2.50386489597391e+001dB,1.78401486162375e+002°)
1.34896288259165e+002	(2.50387770456215e+001dB,1.78364218243704e+002°)
1.38038426460288e+002	(2.50389111620136e+001dB,1.78326079829503e+002°)
1.41253754462275e+002	(2.50390515925458e+001dB,1.78287050470598e+002°)
1.44543977074593e+002	(2.50391986341594e+001dB,1.78247109229134e+002°)
1.47910838816821e+002	(2.50393525977290e+001dB,1.78206234666302e+002°)
1.51356124843621e+002	(2.50395138087129e+001dB,1.78164404829725e+002°)
1.54881661891248e+002	(2.50396826078338e+001dB,1.78121597240478e+002°)
1.58489319246111e+002	(2.50398593517912e+001dB,1.78077788879733e+002°)
1.62181009735893e+002	(2.50400444140068e+001dB,1.78032956175020e+002°)
1.65958690743756e+002	(2.50402381854036e+001dB,1.77987074986072e+002°)
1.69824365246174e+002	(2.50404410752210e+001dB,1.77940120590267e+002°)
1.73780082874937e+002	(2.50406535118686e+001dB,1.77892067667620e+002°)
1.77827941003892e+002	(2.50408759438174e+001dB,1.77842890285334e+002°)
1.81970085860998e+002	(2.50411088405334e+001dB,1.77792561881870e+002°)
1.86208713666287e+002	(2.50413526934530e+001dB,1.77741055250538e+002°)
1.90546071796324e+002	(2.50416080170035e+001dB,1.77688342522571e+002°)
1.94984459975804e+002	(2.50418753496705e+001dB,1.77634395149672e+002°)
1.99526231496888e+002	(2.50421552551134e+001dB,1.77579183886012e+002°)
2.04173794466953e+002	(2.50424483233319e+001dB,1.77522678769642e+002°)
2.08929613085404e+002	(2.50427551718858e+001dB,1.77464849103319e+002°)
2.13796208950223e+002	(2.50430764471700e+001dB,1.77405663434691e+002°)
2.18776162394955e+002	(2.50434128257474e+001dB,1.77345089535843e+002°)
2.23872113856834e+002	(2.50437650157413e+001dB,1.77283094382146e+002°)
2.29086765276777e+002	(2.50441337582923e+001dB,1.77219644130402e+002°)
2.34422881531992e+002	(2.50445198290789e+001dB,1.77154704096237e+002°)
2.39883291901949e+002	(2.50449240399075e+001dB,1.77088238730721e+002°)
2.45470891568503e+002	(2.50453472403734e+001dB,1.77020211596160e+002°)
2.51188643150958e+002	(2.50457903195959e+001dB,1.76950585341041e+002°)
2.57039578276886e+002	(2.50462542080308e+001dB,1.76879321674076e+002°)
2.63026799189538e+002	(2.50467398793634e+001dB,1.76806381337306e+002°)
2.69153480392691e+002	(2.50472483524851e+001dB,1.76731724078219e+002°)
2.75422870333816e+002	(2.50477806935575e+001dB,1.76655308620836e+002°)
2.81838293126445e+002	(2.50483380181674e+001dB,1.76577092635699e+002°)
2.88403150312660e+002	(2.50489214935754e+001dB,1.76497032708731e+002°)
2.95120922666638e+002	(2.50495323410639e+001dB,1.76415084308881e+002°)
3.01995172040201e+002	(2.50501718383855e+001dB,1.76331201754515e+002°)
3.09029543251358e+002	(2.50508413223190e+001dB,1.76245338178471e+002°)
3.16227766016837e+002	(2.50515421913341e+001dB,1.76157445491713e+002°)
3.23593656929628e+002	(2.50522759083707e+001dB,1.76067474345517e+002°)
3.31131121482590e+002	(2.50530440037367e+001dB,1.75975374092087e+002°)
3.38844156139202e+002	(2.50538480781282e+001dB,1.75881092743547e+002°)
3.46736850452531e+002	(2.50546898057765e+001dB,1.75784576929182e+002°)
3.54813389233575e+002	(2.50555709377279e+001dB,1.75685771850869e+002°)
3.63078054770101e+002	(2.50564933052576e+001dB,1.75584621236563e+002°)
3.71535229097172e+002	(2.50574588234261e+001dB,1.75481067291747e+002°)
3.80189396320560e+002	(2.50584694947791e+001dB,1.75375050648721e+002°)
3.89045144994280e+002	(2.50595274131991e+001dB,1.75266510313609e+002°)
3.98107170553496e+002	(2.50606347679091e+001dB,1.75155383610950e+002°)
4.07380277804112e+002	(2.50617938476374e+001dB,1.75041606125718e+002°)
4.16869383470335e+002	(2.50630070449441e+001dB,1.74925111642647e+002°)
4.26579518801592e+002	(2.50642768607162e+001dB,1.74805832082667e+002°)
4.36515832240165e+002	(2.50656059088348e+001dB,1.74683697436294e+002°)
4.46683592150962e+002	(2.50669969210173e+001dB,1.74558635693794e+002°)
4.57088189614874e+002	(2.50684527518411e+001dB,1.74430572771901e+002°)
4.67735141287197e+002	(2.50699763839486e+001dB,1.74299432436901e+002°)
4.78630092322637e+002	(2.50715709334410e+001dB,1.74165136223837e+002°)
4.89778819368445e+002	(2.50732396554591e+001dB,1.74027603351605e+002°)
5.01187233627271e+002	(2.50749859499577e+001dB,1.73886750633668e+002°)
5.12861383991364e+002	(2.50768133676720e+001dB,1.73742492384124e+002°)
5.24807460249771e+002	(2.50787256162781e+001dB,1.73594740318821e+002°)
5.37031796370251e+002	(2.50807265667484e+001dB,1.73443403451203e+002°)
5.49540873857623e+002	(2.50828202598994e+001dB,1.73288387982547e+002°)
5.62341325190348e+002	(2.50850109131325e+001dB,1.73129597186225e+002°)
5.75439937337155e+002	(2.50873029273604e+001dB,1.72966931285597e+002°)
5.88843655355587e+002	(2.50897008941200e+001dB,1.72800287325119e+002°)
6.02559586074356e+002	(2.50922096028592e+001dB,1.72629559034219e+002°)
6.16595001861481e+002	(2.50948340483948e+001dB,1.72454636683446e+002°)
6.30957344480192e+002	(2.50975794385264e+001dB,1.72275406932401e+002°)
6.45654229034654e+002	(2.51004512017965e+001dB,1.72091752668862e+002°)
6.60693448007594e+002	(2.51034549953780e+001dB,1.71903552838548e+002°)
6.76082975391980e+002	(2.51065967130722e+001dB,1.71710682264852e+002°)
6.91830970918935e+002	(2.51098824933920e+001dB,1.71513011457879e+002°)
7.07945784384136e+002	(2.51133187277045e+001dB,1.71310406412063e+002°)
7.24435960074988e+002	(2.51169120684002e+001dB,1.71102728391553e+002°)
7.41310241300916e+002	(2.51206694370504e+001dB,1.70889833702556e+002°)
7.58577575029182e+002	(2.51245980325103e+001dB,1.70671573451716e+002°)
7.76247116628690e+002	(2.51287053389161e+001dB,1.70447793289567e+002°)
7.94328234724279e+002	(2.51329991335167e+001dB,1.70218333138022e+002°)
8.12830516164097e+002	(2.51374874942735e+001dB,1.69983026900787e+002°)
8.31763771102669e+002	(2.51421788071487e+001dB,1.69741702155507e+002°)
8.51138038202374e+002	(2.51470817729945e+001dB,1.69494179826363e+002°)
8.70963589956078e+002	(2.51522054139381e+001dB,1.69240273835752e+002°)
8.91250938133743e+002	(2.51575590791480e+001dB,1.68979790733587e+002°)
9.12010839355907e+002	(2.51631524498461e+001dB,1.68712529302638e+002°)
9.33254300796988e+002	(2.51689955434138e+001dB,1.68438280138240e+002°)
9.54992586021433e+002	(2.51750987164184e+001dB,1.68156825200566e+002°)
9.77237220955808e+002	(2.51814726663619e+001dB,1.67867937337538e+002°)
9.99999999999997e+002	(2.51881284319286e+001dB,1.67571379776338e+002°)
1.02329299228075e+003	(2.51950773914752e+001dB,1.67266905581298e+002°)
1.04712854805090e+003	(2.52023312594757e+001dB,1.66954257075864e+002°)
1.07151930523760e+003	(2.52099020805913e+001dB,1.66633165226125e+002°)
1.09647819614318e+003	(2.52178022209941e+001dB,1.66303348983257e+002°)
1.12201845430196e+003	(2.52260443565227e+001dB,1.65964514582095e+002°)
1.14815362149688e+003	(2.52346414571920e+001dB,1.65616354792825e+002°)
1.17489755493953e+003	(2.52436067675167e+001dB,1.65258548122677e+002°)
1.20226443461741e+003	(2.52529537820349e+001dB,1.64890757964277e+002°)
1.23026877081238e+003	(2.52626962153422e+001dB,1.64512631687189e+002°)
1.25892541179416e+003	(2.52728479658484e+001dB,1.64123799668977e+002°)
1.28824955169313e+003	(2.52834230723739e+001dB,1.63723874261996e+002°)
1.31825673855640e+003	(2.52944356625829e+001dB,1.63312448691954e+002°)
1.34896288259165e+003	(2.53058998921199e+001dB,1.62889095884178e+002°)
1.38038426460288e+003	(2.53178298731711e+001dB,1.62453367213436e+002°)
1.41253754462275e+003	(2.53302395910055e+001dB,1.62004791173106e+002°)
1.44543977074592e+003	(2.53431428068635e+001dB,1.61542871959496e+002°)
1.47910838816820e+003	(2.53565529453534e+001dB,1.61067087967191e+002°)
1.51356124843620e+003	(2.53704829642776e+001dB,1.60576890191472e+002°)
1.54881661891248e+003	(2.53849452045512e+001dB,1.60071700534132e+002°)
1.58489319246111e+003	(2.53999512175755e+001dB,1.59550910009424e+002°)
1.62181009735892e+003	(2.54155115671027e+001dB,1.59013876847507e+002°)
1.65958690743755e+003	(2.54316356022604e+001dB,1.58459924493548e+002°)
1.69824365246174e+003	(2.54483311979931e+001dB,1.57888339501766e+002°)
1.73780082874937e+003	(2.54656044587316e+001dB,1.57298369325144e+002°)
1.77827941003892e+003	(2.54834593805970e+001dB,1.56689220003375e+002°)
1.81970085860998e+003	(2.55018974669053e+001dB,1.56060053754008e+002°)
1.86208713666286e+003	(2.55209172911386e+001dB,1.55409986474709e+002°)
1.90546071796324e+003	(2.55405140009099e+001dB,1.54738085168300e+002°)
1.94984459975804e+003	(2.55606787557555e+001dB,1.54043365306870e+002°)
1.99526231496887e+003	(2.55813980908628e+001dB,1.53324788156915e+002°)
2.04173794466952e+003	(2.56026531980818e+001dB,1.52581258094484e+002°)
2.08929613085403e+003	(2.56244191147940e+001dB,1.51811619947771e+002°)
2.13796208950222e+003	(2.56466638104521e+001dB,1.51014656414870e+002°)
2.18776162394954e+003	(2.56693471598736e+001dB,1.50189085616780e+002°)
2.23872113856833e+003	(2.56924197917382e+001dB,1.49333558860534e+002°)
2.29086765276776e+003	(2.57158218002405e+001dB,1.48446658704837e+002°)
2.34422881531991e+003	(2.57394813075848e+001dB,1.47526897441349e+002°)
2.39883291901948e+003	(2.57633128650614e+001dB,1.46572716128918e+002°)
2.45470891568502e+003	(2.57872156809750e+001dB,1.45582484346129e+002°)
2.51188643150957e+003	(2.58110716648368e+001dB,1.44554500859713e+002°)
2.57039578276885e+003	(2.58347432792311e+001dB,1.43486995442738e+002°)
2.63026799189537e+003	(2.58580711938501e+001dB,1.42378132117080e+002°)
2.69153480392690e+003	(2.58808717406830e+001dB,1.41226014138961e+002°)
2.75422870333815e+003	(2.59029341755920e+001dB,1.40028691093521e+002°)
2.81838293126444e+003	(2.59240177599286e+001dB,1.38784168512922e+002°)
2.88403150312659e+003	(2.59438486868716e+001dB,1.37490420479973e+002°)
2.95120922666637e+003	(2.59621168912707e+001dB,1.36145405722174e+002°)
3.01995172040200e+003	(2.59784727993823e+001dB,1.34747087734577e+002°)
3.09029543251358e+003	(2.59925240963552e+001dB,1.33293459487198e+002°)
3.16227766016836e+003	(2.60038326148257e+001dB,1.31782573265466e+002°)
3.23593656929627e+003	(2.60119114774183e+001dB,1.30212576149785e+002°)
3.31131121482590e+003	(2.60162226587644e+001dB,1.28581751550141e+002°)
3.38844156139201e+003	(2.60161751676646e+001dB,1.26888567059905e+002°)
3.46736850452530e+003	(2.60111240852239e+001dB,1.25131728665025e+002°)
3.54813389233574e+003	(2.60003707271287e+001dB,1.23310241027504e+002°)
3.63078054770100e+003	(2.59831642235164e+001dB,1.21423473145671e+002°)
3.71535229097171e+003	(2.59587048226633e+001dB,1.19471228176134e+002°)
3.80189396320559e+003	(2.59261492185371e+001dB,1.17453815592237e+002°)
3.89045144994279e+003	(2.58846181700972e+001dB,1.15372123176431e+002°)
3.98107170553495e+003	(2.58332066152908e+001dB,1.13227685644162e+002°)
4.07380277804111e+003	(2.57709963797552e+001dB,1.11022746042272e+002°)
4.16869383470333e+003	(2.56970714371534e+001dB,1.08760305544566e+002°)
4.26579518801591e+003	(2.56105354976293e+001dB,1.06444156985966e+002°)
4.36515832240164e+003	(2.55105314922997e+001dB,1.04078897543016e+002°)
4.46683592150961e+003	(2.53962623015980e+001dB,1.01669916476269e+002°)
4.57088189614873e+003	(2.52670118671657e+001dB,9.92233548558808e+001°)
4.67735141287196e+003	(2.51221656592295e+001dB,9.67460356918901e+001°)
4.78630092322636e+003	(2.49612293732793e+001dB,9.42453648044572e+001°)
4.89778819368444e+003	(2.47838447262563e+001dB,9.17292049335646e+001°)
5.01187233627270e+003	(2.45898013281112e+001dB,8.92057277703779e+001°)
5.12861383991362e+003	(2.43790438194303e+001dB,8.66832505234563e+001°)
5.24807460249770e+003	(2.41516737728259e+001dB,8.41700650501395e+001°)
5.37031796370250e+003	(2.39079462223479e+001dB,8.16742682827167e+001°)
5.49540873857622e+003	(2.36482610681227e+001dB,7.92036025563604e+001°)
5.62341325190346e+003	(2.33731499566216e+001dB,7.67653135197393e+001°)
5.75439937337154e+003	(2.30832595196297e+001dB,7.43660317163970e+001°)
5.88843655355586e+003	(2.27793320387479e+001dB,7.20116818915220e+001°)
6.02559586074354e+003	(2.24621846750832e+001dB,6.97074218743941e+001°)
6.16595001861479e+003	(2.21326883703205e+001dB,6.74576107746504e+001°)
6.30957344480190e+003	(2.17917474038984e+001dB,6.52658044250114e+001°)
6.45654229034652e+003	(2.14402804083032e+001dB,6.31347746434397e+001°)
6.60693448007592e+003	(2.10792034300731e+001dB,6.10665480309909e+001°)
6.76082975391978e+003	(2.07094154052321e+001dB,5.90624596515255e+001°)
6.91830970918932e+003	(2.03317862161902e+001dB,5.71232169860321e+001°)
7.07945784384134e+003	(1.99471473270255e+001dB,5.52489699171812e+001°)
7.24435960074986e+003	(1.95562848627541e+001dB,5.34393830698655e+001°)
7.41310241300913e+003	(1.91599349068050e+001dB,5.16937075097199e+001°)
7.58577575029179e+003	(1.87587807362583e+001dB,5.00108495008110e+001°)
7.76247116628687e+003	(1.83534516906060e+001dB,4.83894346850219e+001°)
7.94328234724277e+003	(1.79445233699056e+001dB,4.68278666303505e+001°)
8.12830516164094e+003	(1.75325188752726e+001dB,4.53243791835645e+001°)
8.31763771102666e+003	(1.71179108325252e+001dB,4.38770824492660e+001°)
8.51138038202371e+003	(1.67011239733562e+001dB,4.24840025072643e+001°)
8.70963589956075e+003	(1.62825380838260e+001dB,4.11431151842664e+001°)
8.91250938133740e+003	(1.58624911645002e+001dB,3.98523743280482e+001°)
9.12010839355904e+003	(1.54412826784714e+001dB,3.86097351069905e+001°)
9.33254300796985e+003	(1.50191767918220e+001dB,3.74131728887380e+001°)
9.54992586021430e+003	(1.45964055353936e+001dB,3.62606982507641e+001°)
9.77237220955804e+003	(1.41731718370382e+001dB,3.51503686527094e+001°)
9.99999999999993e+003	(1.37496523900576e+001dB,3.40802972635368e+001°)
1.02329299228075e+004	(1.33260003366891e+001dB,3.30486593918227e+001°)
1.04712854805089e+004	(1.29023477557133e+001dB,3.20536969193978e+001°)
1.07151930523760e+004	(1.24788079509906e+001dB,3.10937210902247e+001°)
1.09647819614318e+004	(1.20554775434314e+001dB,3.01671139599335e+001°)
1.12201845430196e+004	(1.16324383729436e+001dB,2.92723287681755e+001°)
1.14815362149688e+004	(1.12097592196388e+001dB,2.84078894565914e+001°)
1.17489755493952e+004	(1.07874973552974e+001dB,2.75723895200340e+001°)
1.20226443461740e+004	(1.03656999370417e+001dB,2.67644903477616e+001°)
1.23026877081237e+004	(9.94440525553396e+000dB,2.59829191844125e+001°)
1.25892541179416e+004	(9.52364384996741e+000dB,2.52264668174414e+001°)
1.28824955169313e+004	(9.10343950177504e+000dB,2.44939850779652e+001°)
1.31825673855640e+004	(8.68381011843531e+000dB,2.37843842252571e+001°)
1.34896288259164e+004	(8.26476851808495e+000dB,2.30966302711103e+001°)
1.38038426460288e+004	(7.84632312491082e+000dB,2.24297422885649e+001°)
1.41253754462274e+004	(7.42847858452013e+000dB,2.17827897397781e+001°)
1.44543977074592e+004	(7.01123630772012e+000dB,2.11548898497970e+001°)
1.47910838816820e+004	(6.59459495038593e+000dB,2.05452050464121e+001°)
1.51356124843620e+004	(6.17855083637768e+000dB,1.99529404809114e+001°)
1.54881661891247e+004	(5.76309832979250e+000dB,1.93773416402109e+001°)
1.58489319246110e+004	(5.34823016220717e+000dB,1.88176920573415e+001°)
1.62181009735892e+004	(4.93393771998653e+000dB,1.82733111244839e+001°)
1.65958690743755e+004	(4.52021129620177e+000dB,1.77435520105334e+001°)
1.69824365246173e+004	(4.10704031121783e+000dB,1.72277996834524e+001°)
1.73780082874936e+004	(3.69441350557080e+000dB,1.67254690363282e+001°)
1.77827941003891e+004	(3.28231910836144e+000dB,1.62360031150420e+001°)
1.81970085860997e+004	(2.87074498403329e+000dB,1.57588714446925e+001°)
1.86208713666285e+004	(2.45967876008697e+000dB,1.52935684513834e+001°)
1.90546071796323e+004	(2.04910793799534e+000dB,1.48396119755928e+001°)
1.94984459975803e+004	(1.63901998932990e+000dB,1.43965418731107e+001°)
1.99526231496887e+004	(1.22940243888202e+000dB,1.39639186993865e+001°)
2.04173794466951e+004	(8.20242936359634e-001dB,1.35413224730812e+001°)
2.08929613085402e+004	(4.11529318061186e-001dB,1.31283515146256e+001°)
2.13796208950222e+004	(3.24965976852699e-003dB,1.27246213556519e+001°)
2.18776162394954e+004	(-4.04607678041387e-001dB,1.23297637152603e+001°)
2.23872113856832e+004	(-8.12054011691311e-001dB,1.19434255392137e+001°)
2.29086765276776e+004	(-1.21910030164208e+000dB,1.15652680982920e+001°)
2.34422881531990e+004	(-1.62575712491013e+000dB,1.11949661422024e+001°)
2.39883291901947e+004	(-2.03203465188727e+000dB,1.08322071056041e+001°)
2.45470891568501e+004	(-2.43794262696277e+000dB,1.04766903629793e+001°)
2.51188643150956e+004	(-2.84349035241703e+000dB,1.01281265292504e+001°)
2.57039578276884e+004	(-3.24868667511586e+000dB,9.78623680321674e+000°)
2.63026799189536e+004	(-3.65353997558880e+000dB,9.45075235104681e+000°)
2.69153480392689e+004	(-4.05805815912135e+000dB,9.12141372722810e+000°)
2.75422870333814e+004	(-4.46224864853396e+000dB,8.79797033052862e+000°)
2.81838293126443e+004	(-4.86611837835719e+000dB,8.48017989267584e+000°)
2.88403150312658e+004	(-5.26967379014450e+000dB,8.16780799760752e+000°)
2.95120922666636e+004	(-5.67292082869467e+000dB,7.86062762927354e+000°)
3.01995172040199e+004	(-6.07586493897950e+000dB,7.55841874611060e+000°)
3.09029543251357e+004	(-6.47851106359700e+000dB,7.26096788042348e+000°)
3.16227766016835e+004	(-6.88086364058805e+000dB,6.96806776102964e+000°)
3.23593656929626e+004	(-7.28292660147360e+000dB,6.67951695763128e+000°)
3.31131121482588e+004	(-7.68470336938491e+000dB,6.39511954547051e+000°)
3.38844156139200e+004	(-8.08619685717225e+000dB,6.11468478894813e+000°)
3.46736850452529e+004	(-8.48740946538799e+000dB,5.83802684293625e+000°)
3.54813389233573e+004	(-8.88834308005611e+000dB,5.56496447063650e+000°)
3.63078054770098e+004	(-9.28899907014160e+000dB,5.29532077689204e+000°)
3.71535229097169e+004	(-9.68937828464669e+000dB,5.02892295594685e+000°)
3.80189396320558e+004	(-1.00894810492691e+001dB,4.76560205271072e+000°)
3.89045144994277e+004	(-1.04893071625547e+001dB,4.50519273664841e+000°)
3.98107170553494e+004	(-1.08888558914971e+001dB,4.24753308748733e+000°)
4.07380277804109e+004	(-1.12881259665255e+001dB,3.99246439197562e+000°)
4.16869383470332e+004	(-1.16871155758387e+001dB,3.73983095098947e+000°)
4.26579518801589e+004	(-1.20858223590403e+001dB,3.48947989633104e+000°)
4.36515832240162e+004	(-1.24842434000331e+001dB,3.24126101660654e+000°)
4.46683592150959e+004	(-1.28823752191379e+001dB,2.99502659161916e+000°)
4.57088189614871e+004	(-1.32802137643984e+001dB,2.75063123474254e+000°)
4.67735141287194e+004	(-1.36777544020412e+001dB,2.50793174279282e+000°)
4.78630092322634e+004	(-1.40749919060571e+001dB,2.26678695294374e+000°)
4.89778819368442e+004	(-1.44719204468735e+001dB,2.02705760625873e+000°)
5.01187233627268e+004	(-1.48685335790894e+001dB,1.78860621745181e+000°)
5.12861383991360e+004	(-1.52648242282452e+001dB,1.55129695051521e+000°)
5.24807460249768e+004	(-1.56607846765988e+001dB,1.31499549987863e+000°)
5.37031796370248e+004	(-1.60564065478833e+001dB,1.07956897679391e+000°)
5.49540873857620e+004	(-1.64516807910187e+001dB,8.44885800650500e-001°)
5.62341325190344e+004	(-1.68465976627550e+001dB,6.10815594964123e-001°)
5.75439937337152e+004	(-1.72411467092216e+001dB,3.77229087801004e-001°)
5.88843655355584e+004	(-1.76353167463584e+001dB,1.43998016396442e-001°)
6.02559586074352e+004	(-1.80290958392084e+001dB,-8.90049642133718e-002°)
6.16595001861477e+004	(-1.84224712800470e+001dB,-3.21906368759886e-001°)
