Freq.	V(vin_4)
1.00000000000000e+002	(-5.13502268320811e+001dB,-7.33298710540425e-001°)
1.02329299228075e+002	(-5.09491472537284e+001dB,-7.47914814336035e-001°)
1.04712854805090e+002	(-5.05480166436882e+001dB,-7.62935628347684e-001°)
1.07151930523761e+002	(-5.01468325844739e+001dB,-7.78369703527645e-001°)
1.09647819614318e+002	(-4.97455925433534e+001dB,-7.94225852292563e-001°)
1.12201845430196e+002	(-4.93442938668006e+001dB,-8.10513156315263e-001°)
1.14815362149688e+002	(-4.89429337746611e+001dB,-8.27240974631039e-001°)
1.17489755493953e+002	(-4.85415093540495e+001dB,-8.44418952176156e-001°)
1.20226443461741e+002	(-4.81400175529126e+001dB,-8.62057028675709e-001°)
1.23026877081238e+002	(-4.77384551733084e+001dB,-8.80165448024686e-001°)
1.25892541179417e+002	(-4.73368188643276e+001dB,-8.98754768173804e-001°)
1.28824955169313e+002	(-4.69351051146701e+001dB,-9.17835871337622e-001°)
1.31825673855641e+002	(-4.65333102448468e+001dB,-9.37419974962921e-001°)
1.34896288259165e+002	(-4.61314303989955e+001dB,-9.57518643047264e-001°)
1.38038426460288e+002	(-4.57294615362867e+001dB,-9.78143798139326e-001°)
1.41253754462275e+002	(-4.53273994218854e+001dB,-9.99307733985189e-001°)
1.44543977074593e+002	(-4.49252396174681e+001dB,-1.02102312878995e+000°)
1.47910838816821e+002	(-4.45229774712533e+001dB,-1.04330305922555e+000°)
1.51356124843621e+002	(-4.41206081075259e+001dB,-1.06616101515464e+000°)
1.54881661891248e+002	(-4.37181264156278e+001dB,-1.08961091523462e+000°)
1.58489319246111e+002	(-4.33155270383829e+001dB,-1.11366712329750e+000°)
1.62181009735893e+002	(-4.29128043599261e+001dB,-1.13834446569164e+000°)
1.65958690743756e+002	(-4.25099524929126e+001dB,-1.16365824963479e+000°)
1.69824365246174e+002	(-4.21069652650527e+001dB,-1.18962428254620e+000°)
1.73780082874937e+002	(-4.17038362049570e+001dB,-1.21625889255810e+000°)
1.77827941003892e+002	(-4.13005585272326e+001dB,-1.24357895020919e+000°)
1.81970085860998e+002	(-4.08971251168045e+001dB,-1.27160189139617e+000°)
1.86208713666287e+002	(-4.04935285124132e+001dB,-1.30034574177176e+000°)
1.90546071796324e+002	(-4.00897608892270e+001dB,-1.32982914254609e+000°)
1.94984459975804e+002	(-3.96858140405404e+001dB,-1.36007137790923e+000°)
1.99526231496888e+002	(-3.92816793584900e+001dB,-1.39109240416231e+000°)
2.04173794466953e+002	(-3.88773478137312e+001dB,-1.42291288065947e+000°)
2.08929613085404e+002	(-3.84728099340207e+001dB,-1.45555420269605e+000°)
2.13796208950223e+002	(-3.80680557816267e+001dB,-1.48903853658063e+000°)
2.18776162394955e+002	(-3.76630749295168e+001dB,-1.52338885687759e+000°)
2.23872113856834e+002	(-3.72578564362193e+001dB,-1.55862898619480e+000°)
2.29086765276777e+002	(-3.68523888193067e+001dB,-1.59478363755237e+000°)
2.34422881531992e+002	(-3.64466600273922e+001dB,-1.63187845962280e+000°)
2.39883291901949e+002	(-3.60406574105579e+001dB,-1.66994008503119e+000°)
2.45470891568503e+002	(-3.56343676891090e+001dB,-1.70899618199218e+000°)
2.51188643150958e+002	(-3.52277769205546e+001dB,-1.74907550951716e+000°)
2.57039578276886e+002	(-3.48208704646889e+001dB,-1.79020797650511e+000°)
2.63026799189538e+002	(-3.44136329466553e+001dB,-1.83242470503967e+000°)
2.69153480392691e+002	(-3.40060482178615e+001dB,-1.87575809823729e+000°)
2.75422870333816e+002	(-3.35980993145944e+001dB,-1.92024191301507e+000°)
2.81838293126445e+002	(-3.31897684141832e+001dB,-1.96591133822801e+000°)
2.88403150312660e+002	(-3.27810367885465e+001dB,-2.01280307860582e+000°)
2.95120922666638e+002	(-3.23718847549318e+001dB,-2.06095544500939e+000°)
3.01995172040201e+002	(-3.19622916236602e+001dB,-2.11040845157303e+000°)
3.09029543251358e+002	(-3.15522356426567e+001dB,-2.16120392030459e+000°)
3.16227766016837e+002	(-3.11416939385401e+001dB,-2.21338559386372e+000°)
3.23593656929628e+002	(-3.07306424540165e+001dB,-2.26699925721582e+000°)
3.31131121482590e+002	(-3.03190558813080e+001dB,-2.32209286901412e+000°)
3.38844156139202e+002	(-2.99069075913181e+001dB,-2.37871670357988e+000°)
3.46736850452531e+002	(-2.94941695582099e+001dB,-2.43692350451591e+000°)
3.54813389233575e+002	(-2.90808122790490e+001dB,-2.49676865100953e+000°)
3.63078054770101e+002	(-2.86668046881220e+001dB,-2.55831033812372e+000°)
3.71535229097172e+002	(-2.82521140655119e+001dB,-2.62160977235408e+000°)
3.80189396320560e+002	(-2.78367059394754e+001dB,-2.68673138403427e+000°)
3.89045144994280e+002	(-2.74205439821128e+001dB,-2.75374305824044e+000°)
3.98107170553496e+002	(-2.70035898977818e+001dB,-2.82271638608660e+000°)
4.07380277804112e+002	(-2.65858033036501e+001dB,-2.89372693850787e+000°)
4.16869383470335e+002	(-2.61671416017188e+001dB,-2.96685456487788e+000°)
4.26579518801592e+002	(-2.57475598415833e+001dB,-3.04218371909626e+000°)
4.36515832240165e+002	(-2.53270105731261e+001dB,-3.11980381608410e+000°)
4.46683592150962e+002	(-2.49054436882442e+001dB,-3.19980962202603e+000°)
4.57088189614874e+002	(-2.44828062506312e+001dB,-3.28230168207047e+000°)
4.67735141287197e+002	(-2.40590423125149e+001dB,-3.36738678969100e+000°)
4.78630092322637e+002	(-2.36340927171475e+001dB,-3.45517850251117e+000°)
4.89778819368445e+002	(-2.32078948856990e+001dB,-3.54579770990204e+000°)
5.01187233627271e+002	(-2.27803825870624e+001dB,-3.63937325852857e+000°)
5.12861383991364e+002	(-2.23514856889076e+001dB,-3.73604264272082e+000°)
5.24807460249771e+002	(-2.19211298881262e+001dB,-3.83595276760725e+000°)
5.37031796370251e+002	(-2.14892364185973e+001dB,-3.93926079399570e+000°)
5.49540873857623e+002	(-2.10557217339522e+001dB,-4.04613507530954e+000°)
5.62341325190348e+002	(-2.06204971627401e+001dB,-4.15675619838929e+000°)
5.75439937337155e+002	(-2.01834685330756e+001dB,-4.27131814170419e+000°)
5.88843655355587e+002	(-1.97445357634836e+001dB,-4.39002956661744e+000°)
6.02559586074356e+002	(-1.93035924162444e+001dB,-4.51311525969173e+000°)
6.16595001861481e+002	(-1.88605252090610e+001dB,-4.64081774691947e+000°)
6.30957344480192e+002	(-1.84152134803283e+001dB,-4.77339910407280e+000°)
6.45654229034654e+002	(-1.79675286026479e+001dB,-4.91114299133025e+000°)
6.60693448007594e+002	(-1.75173333385183e+001dB,-5.05435694503957e+000°)
6.76082975391980e+002	(-1.70644811312840e+001dB,-5.20337496507037e+000°)
6.91830970918935e+002	(-1.66088153234655e+001dB,-5.35856044289765e+000°)
7.07945784384136e+002	(-1.61501682934708e+001dB,-5.52030948357159e+000°)
7.24435960074988e+002	(-1.56883605003876e+001dB,-5.68905468438250e+000°)
7.41310241300916e+002	(-1.52231994250375e+001dB,-5.86526944466775e+000°)
7.58577575029182e+002	(-1.47544783937155e+001dB,-6.04947289536177e+000°)
7.76247116628690e+002	(-1.42819752689669e+001dB,-6.24223555406894e+000°)
7.94328234724279e+002	(-1.38054509893479e+001dB,-6.44418583247631e+000°)
8.12830516164097e+002	(-1.33246479372826e+001dB,-6.65601754875054e+000°)
8.31763771102669e+002	(-1.28392881108125e+001dB,-6.87849862939930e+000°)
8.51138038202374e+002	(-1.23490710711306e+001dB,-7.11248122454279e+000°)
8.70963589956078e+002	(-1.18536716332008e+001dB,-7.35891350968098e+000°)
8.91250938133743e+002	(-1.13527372613644e+001dB,-7.61885350856063e+000°)
9.12010839355907e+002	(-1.08458851254772e+001dB,-7.89348534912824e+000°)
9.33254300796988e+002	(-1.03326987656471e+001dB,-8.18413846247123e+000°)
9.54992586021433e+002	(-9.81272430488292e+000dB,-8.49231035929068e+000°)
9.77237220955808e+002	(-9.28546613872334e+000dB,-8.81969377796424e+000°)
9.99999999999997e+002	(-8.75038201902407e+000dB,-9.16820920377954e+000°)
1.02329299228075e+003	(-8.20687743541054e+000dB,-9.54004402543814e+000°)
1.04712854805090e+003	(-7.65429918241145e+000dB,-9.93769994280466e+000°)
1.07151930523760e+003	(-7.09192798315707e+000dB,-1.03640506972400e+001°)
1.09647819614318e+003	(-6.51897002232190e+000dB,-1.08224128014915e+001°)
1.12201845430196e+003	(-5.93454722298300e+000dB,-1.13166327541124e+001°)
1.14815362149688e+003	(-5.33768608680838e+000dB,-1.18511953096445e+001°)
1.17489755493953e+003	(-4.72730490924597e+000dB,-1.24313588476445e+001°)
1.20226443461741e+003	(-4.10219918982340e+000dB,-1.30633258935964e+001°)
1.23026877081238e+003	(-3.46102509776443e+000dB,-1.37544596110556e+001°)
1.25892541179416e+003	(-2.80228095227427e+000dB,-1.45135609201448e+001°)
1.28824955169313e+003	(-2.12428688345601e+000dB,-1.53512262529767e+001°)
1.31825673855640e+003	(-1.42516323953357e+000dB,-1.62803134769279e+001°)
1.34896288259165e+003	(-7.02809051069448e-001dB,-1.73165541173863e+001°)
1.38038426460288e+003	(4.51167747402976e-002dB,-1.84793649622472e+001°)
1.41253754462275e+003	(8.21206387087539e-001dB,-1.97929331063593e+001°)
1.44543977074592e+003	(1.62829644552328e+000dB,-2.12876774716371e+001°)
1.47910838816820e+003	(2.46942641701479e+000dB,-2.30022284742649e+001°)
1.51356124843620e+003	(3.34772942773051e+000dB,-2.49861150552931e+001°)
1.54881661891248e+003	(4.26619696900948e+000dB,-2.73033955783035e+001°)
1.58489319246111e+003	(5.22721141049569e+000dB,-3.00374824752002e+001°)
1.62181009735892e+003	(6.23165743837009e+000dB,-3.32972912125507e+001°)
1.65958690743755e+003	(7.27728700326754e+000dB,-3.72243322779096e+001°)
1.69824365246174e+003	(8.35581883845273e+000dB,-4.19988403251911e+001°)
1.73780082874937e+003	(9.44809314314025e+000dB,-4.78392277564041e+001°)
1.77827941003892e+003	(1.05168947037526e+001dB,-5.49812945665864e+001°)
1.81970085860998e+003	(1.14989950206740e+001dB,-6.36126123620897e+001°)
1.86208713666286e+003	(1.23032832552276e+001dB,-7.37386760254550e+001°)
1.90546071796324e+003	(1.28283442827379e+001dB,-8.50135762164549e+001°)
1.94984459975804e+003	(1.30054524414827e+001dB,-9.66903700619463e+001°)
1.99526231496887e+003	(1.28398128475412e+001dB,-1.07853191911957e+002°)
2.04173794466952e+003	(1.24071232563861e+001dB,-1.17799569035622e+002°)
2.08929613085403e+003	(1.18094364387717e+001dB,-1.26235759430565e+002°)
2.13796208950222e+003	(1.11347392781489e+001dB,-1.33200080095443e+002°)
2.18776162394954e+003	(1.04426050129430e+001dB,-1.38892175409776e+002°)
2.23872113856833e+003	(9.76748619316473e+000dB,-1.43548047980839e+002°)
2.29086765276776e+003	(9.12680501053834e+000dB,-1.47381785898250e+002°)
2.34422881531991e+003	(8.52785235707686e+000dB,-1.50568492577350e+002°)
2.39883291901948e+003	(7.97234875681190e+000dB,-1.53245132989140e+002°)
2.45470891568502e+003	(7.45914765830378e+000dB,-1.55516991085504e+002°)
2.51188643150957e+003	(6.98575100316785e+000dB,-1.57464700309740e+002°)
2.57039578276885e+003	(6.54912953732246e+000dB,-1.59150228084362e+002°)
2.63026799189537e+003	(6.14615240482407e+000dB,-1.60621536382970e+002°)
2.69153480392690e+003	(5.77380174402208e+000dB,-1.61916078111203e+002°)
2.75422870333815e+003	(5.42927069127049e+000dB,-1.63063381768012e+002°)
2.81838293126444e+003	(5.10999920386265e+000dB,-1.64086955655497e+002°)
2.88403150312659e+003	(4.81367761401607e+000dB,-1.65005694478754e+002°)
2.95120922666637e+003	(4.53823427902791e+000dB,-1.65834924530104e+002°)
3.01995172040200e+003	(4.28181620833661e+000dB,-1.66587186290099e+002°)
3.09029543251358e+003	(4.04276740857373e+000dB,-1.67272825429427e+002°)
3.16227766016836e+003	(3.81960739777050e+000dB,-1.67900443093720e+002°)
3.23593656929627e+003	(3.61101107748510e+000dB,-1.68477242041317e+002°)
3.31131121482590e+003	(3.41579046248630e+000dB,-1.69009295058039e+002°)
3.38844156139201e+003	(3.23287839918879e+000dB,-1.69501754872854e+002°)
3.46736850452530e+003	(3.06131421488143e+000dB,-1.69959019667580e+002°)
3.54813389233574e+003	(2.90023115029290e+000dB,-1.70384864595822e+002°)
3.63078054770100e+003	(2.74884539318412e+000dB,-1.70782547071499e+002°)
3.71535229097171e+003	(2.60644652495712e+000dB,-1.71154891656380e+002°)
3.80189396320559e+003	(2.47238920134864e+000dB,-1.71504358960687e+002°)
3.89045144994279e+003	(2.34608590409188e+000dB,-1.71833101925206e+002°)
3.98107170553495e+003	(2.22700061856829e+000dB,-1.72143012074793e+002°)
4.07380277804111e+003	(2.11464331059333e+000dB,-1.72435757749059e+002°)
4.16869383470333e+003	(2.00856509242244e+000dB,-1.72712815874506e+002°)
4.26579518801591e+003	(1.90835398332658e+000dB,-1.72975498506197e+002°)
4.36515832240164e+003	(1.81363118352810e+000dB,-1.73224975109377e+002°)
4.46683592150961e+003	(1.72404779195871e+000dB,-1.73462291352462e+002°)
4.57088189614873e+003	(1.63928190834261e+000dB,-1.73688385028339e+002°)
4.67735141287196e+003	(1.55903606869617e+000dB,-1.73904099600047e+002°)
4.78630092322636e+003	(1.48303497065609e+000dB,-1.74110195771976e+002°)
4.89778819368444e+003	(1.41102345127361e+000dB,-1.74307361412513e+002°)
5.01187233627270e+003	(1.34276468520438e+000dB,-1.74496220094367e+002°)
5.12861383991362e+003	(1.27803857571850e+000dB,-1.74677338470983e+002°)
5.24807460249770e+003	(1.21664031477940e+000dB,-1.74851232669104e+002°)
5.37031796370250e+003	(1.15837909169150e+000dB,-1.75018373846515e+002°)
5.49540873857622e+003	(1.10307693258919e+000dB,-1.75179193038871e+002°)
5.62341325190346e+003	(1.05056765540430e+000dB,-1.75334085399003e+002°)
5.75439937337154e+003	(1.00069592697163e+000dB,-1.75483413915352e+002°)
5.88843655355586e+003	(9.53316410661913e-001dB,-1.75627512682352e+002°)
6.02559586074354e+003	(9.08292994418416e-001dB,-1.75766689784263e+002°)
6.16595001861479e+003	(8.65498090348980e-001dB,-1.75901229844488e+002°)
6.30957344480190e+003	(8.24811998125852e-001dB,-1.76031396284603e+002°)
6.45654229034652e+003	(7.86122325393929e-001dB,-1.76157433330787e+002°)
6.60693448007592e+003	(7.49323459210082e-001dB,-1.76279567799857e+002°)
6.76082975391978e+003	(7.14316083246161e-001dB,-1.76398010692540e+002°)
6.91830970918932e+003	(6.81006736107330e-001dB,-1.76512958617722e+002°)
7.07945784384134e+003	(6.49307406653634e-001dB,-1.76624595068134e+002°)
7.24435960074986e+003	(6.19135162681970e-001dB,-1.76733091565197e+002°)
7.41310241300913e+003	(5.90411809733937e-001dB,-1.76838608688328e+002°)
7.58577575029179e+003	(5.63063577154374e-001dB,-1.76941297002067e+002°)
7.76247116628687e+003	(5.37020828837872e-001dB,-1.77041297892587e+002°)
7.94328234724277e+003	(5.12217796377369e-001dB,-1.77138744323748e+002°)
8.12830516164094e+003	(4.88592332571028e-001dB,-1.77233761521536e+002°)
8.31763771102666e+003	(4.66085683457683e-001dB,-1.77326467594654e+002°)
8.51138038202371e+003	(4.44642277239906e-001dB,-1.77416974098097e+002°)
8.70963589956075e+003	(4.24209528620869e-001dB,-1.77505386545710e+002°)
8.91250938133740e+003	(4.04737657228984e-001dB,-1.77591804877034e+002°)
9.12010839355904e+003	(3.86179518936033e-001dB,-1.77676323883115e+002°)
9.33254300796985e+003	(3.68490448990833e-001dB,-1.77759033595437e+002°)
9.54992586021430e+003	(3.51628115994642e-001dB,-1.77840019641635e+002°)
9.77237220955804e+003	(3.35552385837000e-001dB,-1.77919363571282e+002°)
9.99999999999993e+003	(3.20225194793970e-001dB,-1.77997143154635e+002°)
1.02329299228075e+004	(3.05610431063581e-001dB,-1.78073432656956e+002°)
1.04712854805089e+004	(2.91673824081063e-001dB,-1.78148303090704e+002°)
1.07151930523760e+004	(2.78382841014590e-001dB,-1.78221822447689e+002°)
1.09647819614318e+004	(2.65706589896246e-001dB,-1.78294055913023e+002°)
1.12201845430196e+004	(2.53615728890808e-001dB,-1.78365066062557e+002°)
1.14815362149688e+004	(2.42082381248083e-001dB,-1.78434913045275e+002°)
1.17489755493952e+004	(2.31080055523489e-001dB,-1.78503654752018e+002°)
1.20226443461740e+004	(2.20583570686748e-001dB,-1.78571346971720e+002°)
1.23026877081237e+004	(2.10568985770426e-001dB,-1.78638043536276e+002°)
1.25892541179416e+004	(2.01013533738534e-001dB,-1.78703796455016e+002°)
1.28824955169313e+004	(1.91895559281963e-001dB,-1.78768656039685e+002°)
1.31825673855640e+004	(1.83194460270425e-001dB,-1.78832671020731e+002°)
1.34896288259164e+004	(1.74890632613004e-001dB,-1.78895888655642e+002°)
1.38038426460288e+004	(1.66965418297840e-001dB,-1.78958354829994e+002°)
1.41253754462274e+004	(1.59401056400258e-001dB,-1.79020114151819e+002°)
1.44543977074592e+004	(1.52180636863956e-001dB,-1.79081210039838e+002°)
1.47910838816820e+004	(1.45288056875491e-001dB,-1.79141684806062e+002°)
1.51356124843620e+004	(1.38707979664974e-001dB,-1.79201579733222e+002°)
1.54881661891247e+004	(1.32425795578604e-001dB,-1.79260935147446e+002°)
1.58489319246110e+004	(1.26427585280291e-001dB,-1.79319790486552e+002°)
1.62181009735892e+004	(1.20700084949001e-001dB,-1.79378184364322e+002°)
1.65958690743755e+004	(1.15230653348946e-001dB,-1.79436154631068e+002°)
1.69824365246173e+004	(1.10007240657857e-001dB,-1.79493738430780e+002°)
1.73780082874936e+004	(1.05018358946493e-001dB,-1.79550972255129e+002°)
1.77827941003891e+004	(1.00253054210453e-001dB,-1.79607891994572e+002°)
1.81970085860997e+004	(9.57008798613521e-002dB,-1.79664532986780e+002°)
1.86208713666285e+004	(9.13518715913068e-002dB,-1.79720930062601e+002°)
1.90546071796323e+004	(8.71965235300511e-002dB,-1.79777117589751e+002°)
1.94984459975803e+004	(8.32257656192974e-002dB,-1.79833129514405e+002°)
1.99526231496887e+004	(7.94309421341075e-002dB,-1.79888999400852e+002°)
2.04173794466951e+004	(7.58037912852166e-002dB,-1.79944760469369e+002°)
2.08929613085402e+004	(7.23364258407848e-002dB,1.79999554367549e+002°)
2.13796208950222e+004	(6.90213147095595e-002dB,1.79943912470487e+002°)
2.18776162394954e+004	(6.58512654314197e-002dB,1.79888281439793e+002°)
2.23872113856832e+004	(6.28194075241088e-002dB,1.79832629083558e+002°)
2.29086765276776e+004	(5.99191766385941e-002dB,1.79776923386782e+002°)
2.34422881531990e+004	(5.71442994779832e-002dB,1.79721132481625e+002°)
2.39883291901947e+004	(5.44887794375362e-002dB,1.79665224618674e+002°)
2.45470891568501e+004	(5.19468829263699e-002dB,1.79609168139121e+002°)
2.51188643150956e+004	(4.95131263327380e-002dB,1.79552931447792e+002°)
2.57039578276884e+004	(4.71822635980940e-002dB,1.79496482986956e+002°)
2.63026799189536e+004	(4.49492743661149e-002dB,1.79439791210836e+002°)
2.69153480392689e+004	(4.28093526754526e-002dB,1.79382824560773e+002°)
2.75422870333814e+004	(4.07578961662385e-002dB,1.79325551440982e+002°)
2.81838293126443e+004	(3.87904957722531e-002dB,1.79267940194843e+002°)
2.88403150312658e+004	(3.69029258722462e-002dB,1.79209959081680e+002°)
2.95120922666636e+004	(3.50911348747541e-002dB,1.79151576253980e+002°)
3.01995172040199e+004	(3.33512362130193e-002dB,1.79092759735014e+002°)
3.09029543251357e+004	(3.16794997268766e-002dB,1.79033477396804e+002°)
3.16227766016835e+004	(3.00723434103310e-002dB,1.78973696938417e+002°)
3.23593656929626e+004	(2.85263255041556e-002dB,1.78913385864529e+002°)
3.31131121482588e+004	(2.70381369142224e-002dB,1.78852511464252e+002°)
3.38844156139200e+004	(2.56045939369717e-002dB,1.78791040790153e+002°)
3.46736850452529e+004	(2.42226312741827e-002dB,1.78728940637480e+002°)
3.54813389233573e+004	(2.28892953206172e-002dB,1.78666177523530e+002°)
3.63078054770098e+004	(2.16017377080490e-002dB,1.78602717667152e+002°)
3.71535229097169e+004	(2.03572090905941e-002dB,1.78538526968352e+002°)
3.80189396320558e+004	(1.91530531565851e-002dB,1.78473570987983e+002°)
3.89045144994277e+004	(1.79867008528750e-002dB,1.78407814927486e+002°)
3.98107170553494e+004	(1.68556648082323e-002dB,1.78341223608674e+002°)
4.07380277804109e+004	(1.57575339427306e-002dB,1.78273761453532e+002°)
4.16869383470332e+004	(1.46899682508433e-002dB,1.78205392464015e+002°)
4.26579518801589e+004	(1.36506937463424e-002dB,1.78136080201825e+002°)
4.36515832240162e+004	(1.26374975570786e-002dB,1.78065787768153e+002°)
4.46683592150959e+004	(1.16482231592292e-002dB,1.77994477783368e+002°)
4.57088189614871e+004	(1.06807657396415e-002dB,1.77922112366646e+002°)
4.67735141287194e+004	(9.73306767619083e-003dB,1.77848653115506e+002°)
4.78630092322634e+004	(8.80311412607264e-003dB,1.77774061085264e+002°)
4.89778819368442e+004	(7.88892871221245e-003dB,1.77698296768373e+002°)
5.01187233627268e+004	(6.98856929832954e-003dB,1.77621320073654e+002°)
5.12861383991360e+004	(6.10012384334710e-003dB,1.77543090305389e+002°)
5.24807460249768e+004	(5.22170632624223e-003dB,1.77463566142284e+002°)
5.37031796370248e+004	(4.35145273235745e-003dB,1.77382705616285e+002°)
5.49540873857620e+004	(3.48751709276862e-003dB,1.77300466091237e+002°)
5.62341325190344e+004	(2.62806756796391e-003dB,1.77216804241378e+002°)
