Freq.	V(vin_4)
1.00000000000000e+002	(-1.43479625902913e+002dB,-1.68607971072397e+002°)
1.02329299228075e+002	(-1.42687885065828e+002dB,-1.68912589370928e+002°)
1.04712854805090e+002	(-1.41895686535467e+002dB,-1.69212124702506e+002°)
1.07151930523761e+002	(-1.41103044339711e+002dB,-1.69506686654571e+002°)
1.09647819614318e+002	(-1.40309971779930e+002dB,-1.69796385284380e+002°)
1.12201845430196e+002	(-1.39516481421566e+002dB,-1.70081330981067e+002°)
1.14815362149688e+002	(-1.38722585125443e+002dB,-1.70361634353835e+002°)
1.17489755493953e+002	(-1.37928294046120e+002dB,-1.70637406157266e+002°)
1.20226443461741e+002	(-1.37133618648296e+002dB,-1.70908757181098e+002°)
1.23026877081238e+002	(-1.36338568709530e+002dB,-1.71175798222730e+002°)
1.25892541179417e+002	(-1.35543153339305e+002dB,-1.71438639928303e+002°)
1.28824955169313e+002	(-1.34747380981719e+002dB,-1.71697392835130e+002°)
1.31825673855641e+002	(-1.33951259421699e+002dB,-1.71952167242720e+002°)
1.34896288259165e+002	(-1.33154795800115e+002dB,-1.72203073192071e+002°)
1.38038426460288e+002	(-1.32357996610745e+002dB,-1.72450220386079e+002°)
1.41253754462275e+002	(-1.31560867714603e+002dB,-1.72693718241641e+002°)
1.44543977074593e+002	(-1.30763414340106e+002dB,-1.72933675747642e+002°)
1.47910838816821e+002	(-1.29965641090328e+002dB,-1.73170201533993e+002°)
1.51356124843621e+002	(-1.29167551944567e+002dB,-1.73403403790494e+002°)
1.54881661891248e+002	(-1.28369150260989e+002dB,-1.73633390302967e+002°)
1.58489319246111e+002	(-1.27570438778889e+002dB,-1.73860268379557e+002°)
1.62181009735893e+002	(-1.26771419619836e+002dB,-1.74084144929612e+002°)
1.65958690743756e+002	(-1.25972094285574e+002dB,-1.74305126393902e+002°)
1.69824365246174e+002	(-1.25172463659026e+002dB,-1.74523318786677e+002°)
1.73780082874937e+002	(-1.24372527998218e+002dB,-1.74738827699650e+002°)
1.77827941003892e+002	(-1.23572286935846e+002dB,-1.74951758307992e+002°)
1.81970085860998e+002	(-1.22771739472258e+002dB,-1.75162215400545e+002°)
1.86208713666287e+002	(-1.21970883970439e+002dB,-1.75370303391217e+002°)
1.90546071796324e+002	(-1.21169718148490e+002dB,-1.75576126355892e+002°)
1.94984459975804e+002	(-1.20368239069562e+002dB,-1.75779788045177e+002°)
1.99526231496888e+002	(-1.19566443133532e+002dB,-1.75981391941723e+002°)
2.04173794466953e+002	(-1.18764326065126e+002dB,-1.76181041283174e+002°)
2.08929613085404e+002	(-1.17961882899071e+002dB,-1.76378839101991e+002°)
2.13796208950223e+002	(-1.17159107968336e+002dB,-1.76574888284554e+002°)
2.18776162394955e+002	(-1.16355994885515e+002dB,-1.76769291604062e+002°)
2.23872113856834e+002	(-1.15552536526582e+002dB,-1.76962151784376e+002°)
2.29086765276777e+002	(-1.14748725010705e+002dB,-1.77153571560061e+002°)
2.34422881531992e+002	(-1.13944551678468e+002dB,-1.77343653723989e+002°)
2.39883291901949e+002	(-1.13140007069142e+002dB,-1.77532501211184e+002°)
2.45470891568503e+002	(-1.12335080894390e+002dB,-1.77720217150460e+002°)
2.51188643150958e+002	(-1.11529762012335e+002dB,-1.77906904956357e+002°)
2.57039578276886e+002	(-1.10724038396025e+002dB,-1.78092668399435e+002°)
2.63026799189538e+002	(-1.09917897102504e+002dB,-1.78277611690259e+002°)
2.69153480392691e+002	(-1.09111324237883e+002dB,-1.78461839573644e+002°)
2.75422870333816e+002	(-1.08304304920037e+002dB,-1.78645457423703e+002°)
2.81838293126445e+002	(-1.07496823238903e+002dB,-1.78828571342877e+002°)
2.88403150312660e+002	(-1.06688862213413e+002dB,-1.79011288275874e+002°)
2.95120922666638e+002	(-1.05880403745564e+002dB,-1.79193716118906e+002°)
3.01995172040201e+002	(-1.05071428571189e+002dB,-1.79375963847080e+002°)
3.09029543251358e+002	(-1.04261916206858e+002dB,-1.79558141642092e+002°)
3.16227766016837e+002	(-1.03451844893584e+002dB,-1.79740361034959e+002°)
3.23593656929628e+002	(-1.02641191536069e+002dB,-1.79922735051126e+002°)
3.31131121482590e+002	(-1.01829931638073e+002dB,1.79894621626466e+002°)
3.38844156139202e+002	(-1.01018039232838e+002dB,1.79711592489799e+002°)
3.46736850452531e+002	(-1.00205486808826e+002dB,1.79528059022731e+002°)
3.54813389233575e+002	(-9.93922452303969e+001dB,1.79343900505739e+002°)
3.63078054770101e+002	(-9.85782836524328e+001dB,1.79158993805937e+002°)
3.71535229097172e+002	(-9.77635694294138e+001dB,1.78973213151569e+002°)
3.80189396320560e+002	(-9.69480680174969e+001dB,1.78786429889760e+002°)
3.89045144994280e+002	(-9.61317428701048e+001dB,1.78598512224818e+002°)
3.98107170553496e+002	(-9.53145553254398e+001dB,1.78409324935424e+002°)
4.07380277804112e+002	(-9.44964644863168e+001dB,1.78218729070013e+002°)
4.16869383470335e+002	(-9.36774270908016e+001dB,1.78026581615218e+002°)
4.26579518801592e+002	(-9.28573973734001e+001dB,1.77832735139130e+002°)
4.36515832240165e+002	(-9.20363269159310e+001dB,1.77637037400498e+002°)
4.46683592150962e+002	(-9.12141644869507e+001dB,1.77439330925724e+002°)
4.57088189614874e+002	(-9.03908558690411e+001dB,1.77239452548358e+002°)
4.67735141287197e+002	(-8.95663436726696e+001dB,1.77037232904375e+002°)
4.78630092322637e+002	(-8.87405671354514e+001dB,1.76832495882707e+002°)
4.89778819368445e+002	(-8.79134619054087e+001dB,1.76625058021938e+002°)
5.01187233627271e+002	(-8.70849598069159e+001dB,1.76414727849723e+002°)
5.12861383991364e+002	(-8.62549885873686e+001dB,1.76201305155090e+002°)
5.24807460249771e+002	(-8.54234716429508e+001dB,1.75984580189911e+002°)
5.37031796370251e+002	(-8.45903277213216e+001dB,1.75764332785225e+002°)
5.49540873857623e+002	(-8.37554705988077e+001dB,1.75540331377346e+002°)
5.62341325190348e+002	(-8.29188087296819e+001dB,1.75312331927439e+002°)
5.75439937337155e+002	(-8.20802448644284e+001dB,1.75080076724104e+002°)
5.88843655355587e+002	(-8.12396756337081e+001dB,1.74843293051781e+002°)
6.02559586074356e+002	(-8.03969910944013e+001dB,1.74601691707546e+002°)
6.16595001861481e+002	(-7.95520742334801e+001dB,1.74354965344548e+002°)
6.30957344480192e+002	(-7.87048004248846e+001dB,1.74102786619381e+002°)
6.45654229034654e+002	(-7.78550368341642e+001dB,1.73844806113077e+002°)
6.60693448007594e+002	(-7.70026417647162e+001dB,1.73580649995092e+002°)
6.76082975391980e+002	(-7.61474639386330e+001dB,1.73309917390536e+002°)
6.91830970918935e+002	(-7.52893417043326e+001dB,1.73032177404491e+002°)
7.07945784384136e+002	(-7.44281021618588e+001dB,1.72746965753156e+002°)
7.24435960074988e+002	(-7.35635601955976e+001dB,1.72453780935817e+002°)
7.41310241300916e+002	(-7.26955174024333e+001dB,1.72152079874979e+002°)
7.58577575029182e+002	(-7.18237609018134e+001dB,1.71841272936136e+002°)
7.76247116628690e+002	(-7.09480620119749e+001dB,1.71520718220009e+002°)
7.94328234724279e+002	(-7.00681747741922e+001dB,1.71189715001754e+002°)
8.12830516164097e+002	(-6.91838343041439e+001dB,1.70847496164369e+002°)
8.31763771102669e+002	(-6.82947549460267e+001dB,1.70493219440933e+002°)
8.51138038202374e+002	(-6.74006282012947e+001dB,1.70125957243001e+002°)
8.70963589956078e+002	(-6.65011203991000e+001dB,1.69744684801208e+002°)
8.91250938133743e+002	(-6.55958700702983e+001dB,1.69348266284387e+002°)
9.12010839355907e+002	(-6.46844849803176e+001dB,1.68935438484756e+002°)
9.33254300796988e+002	(-6.37665387687532e+001dB,1.68504791559966e+002°)
9.54992586021433e+002	(-6.28415671347877e+001dB,1.68054746197504e+002°)
9.77237220955808e+002	(-6.19090634971230e+001dB,1.67583526407913e+002°)
9.99999999999997e+002	(-6.09684740452452e+001dB,1.67089126947653e+002°)
1.02329299228075e+003	(-6.00191920849910e+001dB,1.66569274106000e+002°)
1.04712854805090e+003	(-5.90605515657868e+001dB,1.66021378242603e+002°)
1.07151930523760e+003	(-5.80918196596006e+001dB,1.65442476005022e+002°)
1.09647819614318e+003	(-5.71121882431731e+001dB,1.64829159549943e+002°)
1.12201845430196e+003	(-5.61207641167381e+001dB,1.64177489283260e+002°)
1.14815362149688e+003	(-5.51165577767194e+001dB,1.63482885548142e+002°)
1.17489755493953e+003	(-5.40984705514087e+001dB,1.62739993216807e+002°)
1.20226443461741e+003	(-5.30652799162404e+001dB,1.61942511130849e+002°)
1.23026877081238e+003	(-5.20156228438976e+001dB,1.61082975564903e+002°)
1.25892541179416e+003	(-5.09479771419304e+001dB,1.60152483047829e+002°)
1.28824955169313e+003	(-4.98606409343708e+001dB,1.59140332510115e+002°)
1.31825673855640e+003	(-4.87517108398866e+001dB,1.58033559188901e+002°)
1.34896288259165e+003	(-4.76190601386387e+001dB,1.56816322090903e+002°)
1.38038426460288e+003	(-4.64603195750047e+001dB,1.55469091809096e+002°)
1.41253754462275e+003	(-4.52728659027602e+001dB,1.53967564416554e+002°)
1.44543977074592e+003	(-4.40538277303524e+001dB,1.52281198010702e+002°)
1.47910838816820e+003	(-4.28001262815410e+001dB,1.50371229533395e+002°)
1.51356124843620e+003	(-4.15085832893683e+001dB,1.48187981384989e+002°)
1.54881661891248e+003	(-4.01761546730383e+001dB,1.45667219058115e+002°)
1.58489319246111e+003	(-3.88003960993449e+001dB,1.42725305891379e+002°)
1.62181009735892e+003	(-3.73803497073367e+001dB,1.39253017515705e+002°)
1.65958690743755e+003	(-3.59181787429294e+001dB,1.35108386609950e+002°)
1.69824365246174e+003	(-3.44220726411417e+001dB,1.30110470890267e+002°)
1.73780082874937e+003	(-3.29111102447046e+001dB,1.24039754901351e+002°)
1.77827941003892e+003	(-3.14224828924073e+001dB,1.16658809796505e+002°)
1.81970085860998e+003	(-3.00195404740782e+001dB,1.07778015371711e+002°)
1.86208713666286e+003	(-2.87937596555481e+001dB,9.73902067476626e+001°)
1.90546071796324e+003	(-2.78471284887673e+001dB,8.58416828979018e+001°)
1.94984459975804e+003	(-2.72488121655810e+001dB,7.38829855804073e+001°)
1.99526231496887e+003	(-2.69934982009504e+001dB,6.24350324325424e+001°)
2.04173794466952e+003	(-2.70048852478706e+001dB,5.22033065323044e+001°)
2.08929613085403e+003	(-2.71802660916377e+001dB,4.34813297081703e+001°)
2.13796208950222e+003	(-2.74312397016511e+001dB,3.62287985439124e+001°)
2.18776162394954e+003	(-2.76980543058474e+001dB,3.02439172767692e+001°)
2.23872113856833e+003	(-2.79462060126120e+001dB,2.52890139470352e+001°)
2.29086765276776e+003	(-2.81582650427837e+001dB,2.11488393505785e+001°)
2.34422881531991e+003	(-2.83269359599366e+001dB,1.76474830562210e+001°)
2.39883291901948e+003	(-2.84504820822963e+001dB,1.46473809090010e+001°)
2.45470891568502e+003	(-2.85300190659654e+001dB,1.20427583128590e+001°)
2.51188643150957e+003	(-2.85680002686324e+001dB,9.75253976553266e+000°)
2.57039578276885e+003	(-2.85673983329125e+001dB,7.71432970931639e+000°)
2.63026799189537e+003	(-2.85312773704400e+001dB,5.87973202367420e+000°)
2.69153480392690e+003	(-2.84625797457914e+001dB,4.21084189402839e+000°)
2.75422870333815e+003	(-2.83640290508235e+001dB,2.67765382269787e+000°)
2.81838293126444e+003	(-2.82380949299312e+001dB,1.25615240941419e+000°)
2.88403150312659e+003	(-2.80869899233441e+001dB,-7.30981088595068e-002°)
2.95120922666637e+003	(-2.79126820290352e+001dB,-1.32600240659857e+000°)
3.01995172040200e+003	(-2.77169141522634e+001dB,-2.51571991125404e+000°)
3.09029543251358e+003	(-2.75012257379508e+001dB,-3.65325914088013e+000°)
3.16227766016836e+003	(-2.72669741608493e+001dB,-4.74793155642682e+000°)
3.23593656929627e+003	(-2.70153547036539e+001dB,-5.80770159164466e+000°)
3.31131121482590e+003	(-2.67474186373911e+001dB,-6.83945935549044e+000°)
3.38844156139201e+003	(-2.64640892835976e+001dB,-7.84923529199277e+000°)
3.46736850452530e+003	(-2.61661761249043e+001dB,-8.84237094906582e+000°)
3.54813389233574e+003	(-2.58543871190181e+001dB,-9.82365633149901e+000°)
3.63078054770100e+003	(-2.55293394055197e+001dB,-1.07974416627696e+001°)
3.71535229097171e+003	(-2.51915686007478e+001dB,-1.17677294555769e+001°)
3.80189396320559e+003	(-2.48415368676242e+001dB,-1.27382513831268e+001°)
3.89045144994279e+003	(-2.44796399326018e+001dB,-1.37125334061294e+001°)
3.98107170553495e+003	(-2.41062132054340e+001dB,-1.46939518413187e+001°)
4.07380277804111e+003	(-2.37215371415327e+001dB,-1.56857824832926e+001°)
4.16869383470333e+003	(-2.33258419725610e+001dB,-1.66912444604612e+001°)
4.26579518801591e+003	(-2.29193119191923e+001dB,-1.77135401804632e+001°)
4.36515832240164e+003	(-2.25020889909352e+001dB,-1.87558924730643e+001°)
4.46683592150961e+003	(-2.20742764717029e+001dB,-1.98215798491099e+001°)
4.57088189614873e+003	(-2.16359421864469e+001dB,-2.09139706470397e+001°)
4.67735141287196e+003	(-2.11871216437571e+001dB,-2.20365567218438e+001°)
4.78630092322636e+003	(-2.07278211519369e+001dB,-2.31929872350271e+001°)
4.89778819368444e+003	(-2.02580210118353e+001dB,-2.43871030194880e+001°)
5.01187233627270e+003	(-1.97776788988241e+001dB,-2.56229719116137e+001°)
5.12861383991362e+003	(-1.92867335589354e+001dB,-2.69049253555452e+001°)
5.24807460249770e+003	(-1.87851089604814e+001dB,-2.82375964814557e+001°)
5.37031796370250e+003	(-1.82727190625173e+001dB,-2.96259597288369e+001°)
5.49540873857622e+003	(-1.77494733851379e+001dB,-3.10753719125351e+001°)
5.62341325190346e+003	(-1.72152835932467e+001dB,-3.25916143952116e+001°)
5.75439937337154e+003	(-1.66700713338840e+001dB,-3.41809357121467e+001°)
5.88843655355586e+003	(-1.61137775951104e+001dB,-3.58500935646673e+001°)
6.02559586074354e+003	(-1.55463738777647e+001dB,-3.76063945233090e+001°)
6.16595001861479e+003	(-1.49678754835557e+001dB,-3.94577290230698e+001°)
6.30957344480190e+003	(-1.43783572135496e+001dB,-4.14125982509002e+001°)
6.45654229034652e+003	(-1.37779717246381e+001dB,-4.34801282855755e+001°)
6.60693448007592e+003	(-1.31669706855270e+001dB,-4.56700653356798e+001°)
6.76082975391978e+003	(-1.25457286769815e+001dB,-4.79927441566236e+001°)
6.91830970918932e+003	(-1.19147694525848e+001dB,-5.04590198125710e+001°)
7.07945784384134e+003	(-1.12747936660883e+001dB,-5.30801511141748e+001°)
7.24435960074986e+003	(-1.06267064251937e+001dB,-5.58676227412209e+001°)
7.41310241300913e+003	(-9.97164200232901e+000dB,-5.88328929739331e+001°)
7.58577575029179e+003	(-9.31098170412436e+000dB,-6.19870562009527e+001°)
7.76247116628687e+003	(-8.64635932478702e+000dB,-6.53404154359494e+001°)
7.94328234724277e+003	(-7.97964695818455e+000dB,-6.89019717343443e+001°)
8.12830516164094e+003	(-7.31291257472016e+000dB,-7.26788563543122e+001°)
8.31763771102666e+003	(-6.64834025965839e+000dB,-7.66757586416780e+001°)
8.51138038202371e+003	(-5.98810513204161e+000dB,-8.08944369194996e+001°)
8.70963589956075e+003	(-5.33419852801646e+000dB,-8.53334370093311e+001°)
8.91250938133740e+003	(-4.68820555986048e+000dB,-8.99881755923629e+001°)
9.12010839355904e+003	(-4.05104643641703e+000dB,-9.48515630602930e+001°)
9.33254300796985e+003	(-3.42270364864648e+000dB,-9.99153336674552e+001°)
9.54992586021430e+003	(-2.80196701288746e+000dB,-1.05172218011548e+002°)
9.77237220955804e+003	(-2.18623533440248e+000dB,-1.10619046210889e+002°)
9.99999999999993e+003	(-1.57141664632365e+000dB,-1.16260837369765e+002°)
1.02329299228075e+004	(-9.51972319228554e-001dB,-1.22115949063689e+002°)
1.04712854805089e+004	(-3.21164080629588e-001dB,-1.28222459662342e+002°)
1.07151930523760e+004	(3.28393548156312e-001dB,-1.34646131750795e+002°)
1.09647819614318e+004	(1.00366727984873e+000dB,-1.41490463683981e+002°)
1.12201845430196e+004	(1.70919843401804e+000dB,-1.48909157824378e+002°)
1.14815362149688e+004	(2.44333150780922e+000dB,-1.57119889602232e+002°)
1.17489755493952e+004	(3.19128888225303e+000dB,-1.66413127540994e+002°)
1.20226443461740e+004	(3.91348686068462e+000dB,-1.77135856281042e+002°)
1.23026877081237e+004	(4.52996447593122e+000dB,1.70397071570873e+002°)
1.25892541179416e+004	(4.91241782373033e+000dB,1.56128091988496e+002°)
1.28824955169313e+004	(4.91322797940479e+000dB,1.40577800843677e+002°)
1.31825673855640e+004	(4.44710849486514e+000dB,1.24918266552681e+002°)
1.34896288259164e+004	(3.55821919976685e+000dB,1.10459807149499e+002°)
1.38038426460288e+004	(2.38611622062594e+000dB,9.79853672454306e+001°)
1.41253754462274e+004	(1.07684156315320e+000dB,8.76144378143509e+001°)
1.44543977074592e+004	(-2.67158047806793e-001dB,7.90875255651054e+001°)
1.47910838816820e+004	(-1.58877646658875e+000dB,7.20443952096411e+001°)
1.51356124843620e+004	(-2.86127082492270e+000dB,6.61566875180221e+001°)
1.54881661891247e+004	(-4.07479357405208e+000dB,6.11632844496802e+001°)
1.58489319246110e+004	(-5.22798730365915e+000dB,5.68668204440155e+001°)
1.62181009735892e+004	(-6.32341229095278e+000dB,5.31203171497820e+001°)
1.65958690743755e+004	(-7.36521494132236e+000dB,4.98141295174180e+001°)
1.69824365246173e+004	(-8.35798751063606e+000dB,4.68656811455787e+001°)
1.73780082874936e+004	(-9.30623604041661e+000dB,4.42119706914324e+001°)
1.77827941003891e+004	(-1.02141523705154e+001dB,4.18042446985899e+001°)
1.81970085860997e+004	(-1.10855353246587e+001dB,3.96042329980643e+001°)
1.86208713666285e+004	(-1.19237828746907e+001dB,3.75814778007838e+001°)
1.90546071796323e+004	(-1.27319160357910e+001dB,3.57114218170328e+001°)
1.94984459975803e+004	(-1.35126149914528e+001dB,3.39740241511936e+001°)
1.99526231496887e+004	(-1.42682579753908e+001dB,3.23527458365390e+001°)
2.04173794466951e+004	(-1.50009585290698e+001dB,3.08337968451931e+001°)
2.08929613085402e+004	(-1.57125993218722e+001dB,2.94055701560414e+001°)
2.13796208950222e+004	(-1.64048619930024e+001dB,2.80582112306994e+001°)
2.18776162394954e+004	(-1.70792530793892e+001dB,2.67832866786569e+001°)
2.23872113856832e+004	(-1.77371263575413e+001dB,2.55735264327933e+001°)
2.29086765276776e+004	(-1.83797020188750e+001dB,2.44226210238546e+001°)
2.34422881531990e+004	(-1.90080831057322e+001dB,2.33250606050592e+001°)
2.39883291901947e+004	(-1.96232696049718e+001dB,2.22760059422401e+001°)
2.45470891568501e+004	(-2.02261705511199e+001dB,2.12711841211435e+001°)
2.51188643150956e+004	(-2.08176144432656e+001dB,2.03068035472765e+001°)
2.57039578276884e+004	(-2.13983582346744e+001dB,1.93794841387001e+001°)
2.63026799189536e+004	(-2.19690951136757e+001dB,1.84861995843932e+001°)
2.69153480392689e+004	(-2.25304612594095e+001dB,1.76242292611135e+001°)
2.75422870333814e+004	(-2.30830417262949e+001dB,1.67911179402369e+001°)
2.81838293126443e+004	(-2.36273755861086e+001dB,1.59846418223612e+001°)
2.88403150312658e+004	(-2.41639604357141e+001dB,1.52027797465222e+001°)
2.95120922666636e+004	(-2.46932563611321e+001dB,1.44436886579681e+001°)
3.01995172040199e+004	(-2.52156894342423e+001dB,1.37056826016755e+001°)
3.09029543251357e+004	(-2.57316548064356e+001dB,1.29872146514837e+001°)
3.16227766016835e+004	(-2.62415194535927e+001dB,1.22868612966370e+001°)
3.23593656929626e+004	(-2.67456246184877e+001dB,1.16033088958949e+001°)
3.31131121482588e+004	(-2.72442879898094e+001dB,1.09353418795661e+001°)
3.38844156139200e+004	(-2.77378056512235e+001dB,1.02818324360081e+001°)
3.46736850452529e+004	(-2.82264538290613e+001dB,9.64173146425515e+000°)
3.54813389233573e+004	(-2.87104904631565e+001dB,9.01406061100436e+000°)
3.63078054770098e+004	(-2.91901566219296e+001dB,8.39790523989066e+000°)
3.71535229097169e+004	(-2.96656777799220e+001dB,7.79240820524485e+000°)
3.80189396320558e+004	(-3.01372649735343e+001dB,7.19676432252630e+000°)
3.89045144994277e+004	(-3.06051158486354e+001dB,6.61021544404710e+000°)
3.98107170553494e+004	(-3.10694156119381e+001dB,6.03204606228089e+000°)
4.07380277804109e+004	(-3.15303378965134e+001dB,5.46157937441598e+000°)
4.16869383470332e+004	(-3.19880455505187e+001dB,4.89817375131705e+000°)
4.26579518801589e+004	(-3.24426913570983e+001dB,4.34121956203559e+000°)
4.36515832240162e+004	(-3.28944186924469e+001dB,3.79013631174366e+000°)
4.46683592150959e+004	(-3.33433621282004e+001dB,3.24437005665001e+000°)
4.57088189614871e+004	(-3.37896479835930e+001dB,2.70339106428414e+000°)
4.67735141287194e+004	(-3.42333948321989e+001dB,2.16669169162806e+000°)
4.78630092322634e+004	(-3.46747139675264e+001dB,1.63378445713993e+000°)
4.89778819368442e+004	(-3.51137098312660e+001dB,1.10420028564870e+000°)
5.01187233627268e+004	(-3.55504804075690e+001dB,5.77486907745575e-001°)
5.12861383991360e+004	(-3.59851175863793e+001dB,5.32073975097299e-002°)
5.24807460249768e+004	(-3.64177074985165e+001dB,-4.69061165677348e-001°)
5.37031796370248e+004	(-3.68483308249254e+001dB,-9.89728923785293e-001°)
5.49540873857620e+004	(-3.72770630822693e+001dB,-1.50919436638519e+000°)
5.62341325190344e+004	(-3.77039748868161e+001dB,-2.02784536631849e+000°)
