Freq.	V(n015)
1.00000000000000e+002	(-1.47651057896862e+002dB,-8.13677619797050e+001°)
1.02329299228075e+002	(-1.46658755828988e+002dB,-8.17367149421876e+001°)
1.04712854805090e+002	(-1.45665969615081e+002dB,-8.21020928895588e+001°)
1.07151930523761e+002	(-1.44672712033677e+002dB,-8.24640410785727e+001°)
1.09647819614318e+002	(-1.43678995073203e+002dB,-8.28227061086357e+001°)
1.12201845430196e+002	(-1.42684829939362e+002dB,-8.31782357992533e+001°)
1.14815362149688e+002	(-1.41690227054672e+002dB,-8.35307791240854e+001°)
1.17489755493953e+002	(-1.40695196075587e+002dB,-8.38804861338127e+001°)
1.20226443461741e+002	(-1.39699745890491e+002dB,-8.42275078956004e+001°)
1.23026877081238e+002	(-1.38703884644859e+002dB,-8.45719964690876e+001°)
1.25892541179417e+002	(-1.37707619712149e+002dB,-8.49141047998343e+001°)
1.28824955169313e+002	(-1.36710957740059e+002dB,-8.52539867693190e+001°)
1.31825673855641e+002	(-1.35713904623749e+002dB,-8.55917971076233e+001°)
1.34896288259165e+002	(-1.34716465520530e+002dB,-8.59276913984133e+001°)
1.38038426460288e+002	(-1.33718644860790e+002dB,-8.62618260272239e+001°)
1.41253754462275e+002	(-1.32720446325968e+002dB,-8.65943582788865e+001°)
1.44543977074593e+002	(-1.31721872881389e+002dB,-8.69254462094809e+001°)
1.47910838816821e+002	(-1.30722926742808e+002dB,-8.72552487736202e+001°)
1.51356124843621e+002	(-1.29723609404805e+002dB,-8.75839257582982e+001°)
1.54881661891248e+002	(-1.28723921614225e+002dB,-8.79116378700249e+001°)
1.58489319246111e+002	(-1.27723863376561e+002dB,-8.82385467000920e+001°)
1.62181009735893e+002	(-1.26723433949192e+002dB,-8.85648148356483e+001°)
1.65958690743756e+002	(-1.25722631843390e+002dB,-8.88906058398153e+001°)
1.69824365246174e+002	(-1.24721454800858e+002dB,-8.92160843342866e+001°)
1.73780082874937e+002	(-1.23719899791995e+002dB,-8.95414160535105e+001°)
1.77827941003892e+002	(-1.22717963006194e+002dB,-8.98667678919108e+001°)
1.81970085860998e+002	(-1.21715639845947e+002dB,-9.01923079893295e+001°)
1.86208713666287e+002	(-1.20712924883157e+002dB,-9.05182057898058e+001°)
1.90546071796324e+002	(-1.19709811904247e+002dB,-9.08446321421339e+001°)
1.94984459975804e+002	(-1.18706293809217e+002dB,-9.11717593507020e+001°)
1.99526231496888e+002	(-1.17702362686903e+002dB,-9.14997613180437e+001°)
2.04173794466953e+002	(-1.16698009699283e+002dB,-9.18288136005018e+001°)
2.08929613085404e+002	(-1.15693225134205e+002dB,-9.21590935357836e+001°)
2.13796208950223e+002	(-1.14687998345554e+002dB,-9.24907803606080e+001°)
2.18776162394955e+002	(-1.13682317721166e+002dB,-9.28240553071583e+001°)
2.23872113856834e+002	(-1.12676170686135e+002dB,-9.31591017597992e+001°)
2.29086765276777e+002	(-1.11669543617017e+002dB,-9.34961053620604e+001°)
2.34422881531992e+002	(-1.10662421883060e+002dB,-9.38352541898907e+001°)
2.39883291901949e+002	(-1.09654789736061e+002dB,-9.41767388767577e+001°)
2.45470891568503e+002	(-1.08646630315473e+002dB,-9.45207527763266e+001°)
2.51188643150958e+002	(-1.07637925594045e+002dB,-9.48674921593948e+001°)
2.57039578276886e+002	(-1.06628656333200e+002dB,-9.52171563463080e+001°)
2.63026799189538e+002	(-1.05618802038157e+002dB,-9.55699479460550e+001°)
2.69153480392691e+002	(-1.04608340897699e+002dB,-9.59260730059897e+001°)
2.75422870333816e+002	(-1.03597249759376e+002dB,-9.62857412875553e+001°)
2.81838293126445e+002	(-1.02585504020356e+002dB,-9.66491664062992e+001°)
2.88403150312660e+002	(-1.01573077606551e+002dB,-9.70165661471759e+001°)
2.95120922666638e+002	(-1.00559942912919e+002dB,-9.73881626802820e+001°)
3.01995172040201e+002	(-9.95460706884770e+001dB,-9.77641828191228e+001°)
3.09029543251358e+002	(-9.85314300112954e+001dB,-9.81448583267307e+001°)
3.16227766016837e+002	(-9.75159881770332e+001dB,-9.85304262047436e+001°)
3.23593656929628e+002	(-9.64997106371928e+001dB,-9.89211290139675e+001°)
3.31131121482590e+002	(-9.54825608783565e+001dB,-9.93172152082918e+001°)
3.38844156139202e+002	(-9.44645003693160e+001dB,-9.97189395186923e+001°)
3.46736850452531e+002	(-9.34454884208804e+001dB,-1.00126563294221e+002°)
3.54813389233575e+002	(-9.24254820961384e+001dB,-1.00540354972755e+002°)
3.63078054770101e+002	(-9.14044361012963e+001dB,-1.00960590466428e+002°)
3.71535229097172e+002	(-9.03823026460328e+001dB,-1.01387553668738e+002°)
3.80189396320560e+002	(-8.93590313363046e+001dB,-1.01821536949488e+002°)
3.89045144994280e+002	(-8.83345690013945e+001dB,-1.02262841665324e+002°)
3.98107170553496e+002	(-8.73088595773610e+001dB,-1.02711778767601e+002°)
4.07380277804112e+002	(-8.62818439417028e+001dB,-1.03168669439100e+002°)
4.16869383470335e+002	(-8.52534597319126e+001dB,-1.03633845702242e+002°)
4.26579518801592e+002	(-8.42236411746713e+001dB,-1.04107651183531e+002°)
4.36515832240165e+002	(-8.31923189032935e+001dB,-1.04590441888415e+002°)
4.46683592150962e+002	(-8.21594197241240e+001dB,-1.05082587004529e+002°)
4.57088189614874e+002	(-8.11248664361288e+001dB,-1.05584469845081e+002°)
4.67735141287197e+002	(-8.00885775482562e+001dB,-1.06096488757034e+002°)
4.78630092322637e+002	(-7.90504670766803e+001dB,-1.06619058265558e+002°)
4.89778819368445e+002	(-7.80104442325488e+001dB,-1.07152610156212e+002°)
5.01187233627271e+002	(-7.69684131541225e+001dB,-1.07697594726441e+002°)
5.12861383991364e+002	(-7.59242725992517e+001dB,-1.08254482199600e+002°)
5.24807460249771e+002	(-7.48779155746473e+001dB,-1.08823764106034e+002°)
5.37031796370251e+002	(-7.38292290300005e+001dB,-1.09405954939616e+002°)
5.49540873857623e+002	(-7.27780934170745e+001dB,-1.10001593963264e+002°)
5.62341325190348e+002	(-7.17243823039498e+001dB,-1.10611247062715e+002°)
5.75439937337155e+002	(-7.06679618877084e+001dB,-1.11235508821074e+002°)
5.88843655355587e+002	(-6.96086905626575e+001dB,-1.11875005031667e+002°)
6.02559586074356e+002	(-6.85464183105797e+001dB,-1.12530394980635e+002°)
6.16595001861481e+002	(-6.74809861844914e+001dB,-1.13202374475590e+002°)
6.30957344480192e+002	(-6.64122256564533e+001dB,-1.13891678810767e+002°)
6.45654229034654e+002	(-6.53399579474536e+001dB,-1.14599086303243e+002°)
6.60693448007594e+002	(-6.42639932705727e+001dB,-1.15325421987568e+002°)
6.76082975391980e+002	(-6.31841300431417e+001dB,-1.16071561979605e+002°)
6.91830970918935e+002	(-6.21001539862482e+001dB,-1.16838438078930e+002°)
7.07945784384136e+002	(-6.10118371647529e+001dB,-1.17627043084001e+002°)
7.24435960074988e+002	(-5.99189369210558e+001dB,-1.18438436655115e+002°)
7.41310241300916e+002	(-5.88211947122565e+001dB,-1.19273751950148e+002°)
7.58577575029182e+002	(-5.77183348229279e+001dB,-1.20134203015302e+002°)
7.76247116628690e+002	(-5.66100629591610e+001dB,-1.21021093218130e+002°)
7.94328234724279e+002	(-5.54960646631050e+001dB,-1.21935824660037e+002°)
8.12830516164097e+002	(-5.43760035990887e+001dB,-1.22879909059556e+002°)
8.31763771102669e+002	(-5.32495196251456e+001dB,-1.23854979867921e+002°)
8.51138038202374e+002	(-5.21162266365233e+001dB,-1.24862806429269e+002°)
8.70963589956078e+002	(-5.09757102050082e+001dB,-1.25905309996525e+002°)
8.91250938133743e+002	(-4.98275248731561e+001dB,-1.26984582149210e+002°)
9.12010839355907e+002	(-4.86711911968390e+001dB,-1.28102906416800e+002°)
9.33254300796988e+002	(-4.75061923696187e+001dB,-1.29262782872614e+002°)
9.54992586021433e+002	(-4.63319704370524e+001dB,-1.30466957376856e+002°)
9.77237220955808e+002	(-4.51479220279156e+001dB,-1.31718455382615e+002°)
9.99999999999997e+002	(-4.39533935254679e+001dB,-1.33020622107310e+002°)
1.02329299228075e+003	(-4.27476755848739e+001dB,-1.34377169888084e+002°)
1.04712854805090e+003	(-4.15299969202991e+001dB,-1.35792234741290e+002°)
1.07151930523760e+003	(-4.02995172028653e+001dB,-1.37270444254293e+002°)
1.09647819614318e+003	(-3.90553190080489e+001dB,-1.38816999229343e+002°)
1.12201845430196e+003	(-3.77963986030780e+001dB,-1.40437773278160e+002°)
1.14815362149688e+003	(-3.65216554795214e+001dB,-1.42139434467341e+002°)
1.17489755493953e+003	(-3.52298804196555e+001dB,-1.43929595352781e+002°)
1.20226443461741e+003	(-3.39197420064210e+001dB,-1.45816999858501e+002°)
1.23026877081238e+003	(-3.25897714645316e+001dB,-1.47811757527125e+002°)
1.25892541179416e+003	(-3.12383458239663e+001dB,-1.49925640015615e+002°)
1.28824955169313e+003	(-2.98636696952364e+001dB,-1.52172460059446e+002°)
1.31825673855640e+003	(-2.84637562395611e+001dB,-1.54568560420597e+002°)
1.34896288259165e+003	(-2.70364087944524e+001dB,-1.57133450970723e+002°)
1.38038426460288e+003	(-2.55792058876696e+001dB,-1.59890647020499e+002°)
1.41253754462275e+003	(-2.40894948915283e+001dB,-1.62868782995722e+002°)
1.44543977074592e+003	(-2.25644041632654e+001dB,-1.66103104380864e+002°)
1.47910838816820e+003	(-2.10008913311904e+001dB,-1.69637479749245e+002°)
1.51356124843620e+003	(-1.93958603382508e+001dB,-1.73527122320999e+002°)
1.54881661891248e+003	(-1.77464060885592e+001dB,-1.77842258336845e+002°)
1.58489319246111e+003	(-1.60502931338049e+001dB,1.77327005728951e+002°)
1.62181009735892e+003	(-1.43068579428935e+001dB,1.71864482738340e+002°)
1.65958690743755e+003	(-1.25186618989050e+001dB,1.65620745483297e+002°)
1.69824365246174e+003	(-1.06944177223859e+001dB,1.58406906529684e+002°)
1.73780082874937e+003	(-8.85387726589298e+000dB,1.49995054328210e+002°)
1.77827941003892e+003	(-7.03508236172387e+000dB,1.40138978306020e+002°)
1.81970085860998e+003	(-5.30244148271139e+000dB,1.28639997629803e+002°)
1.86208713666286e+003	(-3.74873072450943e+000dB,1.15481767845021e+002°)
1.90546071796324e+003	(-2.47751178306480e+000dB,1.01001516797684e+002°)
1.94984459975804e+003	(-1.55982935776371e+000dB,8.59411318542487e+001°)
1.99526231496887e+003	(-9.92582765737307e-001dB,7.12136947187490e+001°)
2.04173794466952e+003	(-7.02031052537840e-001dB,5.75181734838939e+001°)
2.08929613085403e+003	(-5.88375908532727e-001dB,4.51434970637299e+001°)
2.13796208950222e+003	(-5.66449928615485e-001dB,3.40473734340111e+001°)
2.18776162394954e+003	(-5.80004578715080e-001dB,2.40293467095429e+001°)
2.23872113856833e+003	(-5.98215955494091e-001dB,1.48571139644374e+001°)
2.29086765276776e+003	(-6.07377243033031e-001dB,6.32540934839732e+000°)
2.34422881531991e+003	(-6.03786764190040e-001dB,-1.72672232404770e+000°)
2.39883291901948e+003	(-5.88972118853132e-001dB,-9.41690189453560e+000°)
2.45470891568502e+003	(-5.66774233159626e-001dB,-1.68263881684540e+001°)
2.51188643150957e+003	(-5.41639526910857e-001dB,-2.40080510987674e+001°)
2.57039578276885e+003	(-5.17652902303215e-001dB,-3.09936980096801e+001°)
2.63026799189537e+003	(-4.98030151895394e-001dB,-3.78003585117642e+001°)
2.69153480392690e+003	(-4.84907932885913e-001dB,-4.44355018420751e+001°)
2.75422870333815e+003	(-4.79332793902942e-001dB,-5.09012261309304e+001°)
2.81838293126444e+003	(-4.81380558582153e-001dB,-5.71974611568076e+001°)
2.88403150312659e+003	(-4.90351844092080e-001dB,-6.33242425806350e+001°)
2.95120922666637e+003	(-5.04999153676755e-001dB,-6.92831525837579e+001°)
3.01995172040200e+003	(-5.23751137950086e-001dB,-7.50780625086963e+001°)
3.09029543251358e+003	(-5.44910560307948e-001dB,-8.07153389940945e+001°)
3.16227766016836e+003	(-5.66813214813627e-001dB,-8.62036783056382e+001°)
3.23593656929627e+003	(-5.87944175945007e-001dB,-9.15537169990204e+001°)
3.31131121482590e+003	(-6.07013919543149e-001dB,-9.67775366453669e+001°)
3.38844156139201e+003	(-6.23000474586246e-001dB,-1.01888146800424e+002°)
3.46736850452530e+003	(-6.35165096680514e-001dB,-1.06898999285077e+002°)
3.54813389233574e+003	(-6.43048630732315e-001dB,-1.11823561518418e+002°)
3.63078054770100e+003	(-6.46454741548600e-001dB,-1.16674959751148e+002°)
3.71535229097171e+003	(-6.45424772895730e-001dB,-1.21465691683926e+002°)
3.80189396320559e+003	(-6.40207574094022e-001dB,-1.26207402395207e+002°)
3.89045144994279e+003	(-6.31226654524821e-001dB,-1.30910715815406e+002°)
3.98107170553495e+003	(-6.19045965950071e-001dB,-1.35585113775824e+002°)
4.07380277804111e+003	(-6.04335192285962e-001dB,-1.40238856645443e+002°)
4.16869383470333e+003	(-5.87834990139945e-001dB,-1.44878941139117e+002°)
4.26579518801591e+003	(-5.70322554703682e-001dB,-1.49511093206794e+002°)
4.36515832240164e+003	(-5.52577866709342e-001dB,-1.54139794670289e+002°)
4.46683592150961e+003	(-5.35351104306504e-001dB,-1.58768343942316e+002°)
4.57088189614873e+003	(-5.19331894886971e-001dB,-1.63398950689036e+002°)
4.67735141287196e+003	(-5.05121170530100e-001dB,-1.68032863767360e+002°)
4.78630092322636e+003	(-4.93206626309097e-001dB,-1.72670530722990e+002°)
4.89778819368444e+003	(-4.83942659577528e-001dB,-1.77311785534821e+002°)
5.01187233627270e+003	(-4.77535750179827e-001dB,1.78043941061889e+002°)
5.12861383991362e+003	(-4.74035979713352e-001dB,1.73397395200886e+002°)
5.24807460249770e+003	(-4.73335146921256e-001dB,1.68749266051096e+002°)
5.37031796370250e+003	(-4.75171641569030e-001dB,1.64099953127648e+002°)
5.49540873857622e+003	(-4.79141863953247e-001dB,1.59449343789210e+002°)
5.62341325190346e+003	(-4.84717707885876e-001dB,1.54796609021428e+002°)
5.75439937337154e+003	(-4.91269368199083e-001dB,1.50140023748782e+002°)
5.88843655355586e+003	(-4.98092589444858e-001dB,1.45476817564693e+002°)
6.02559586074354e+003	(-5.04439456307503e-001dB,1.40803058422376e+002°)
6.16595001861479e+003	(-5.09551871679404e-001dB,1.36113571964586e+002°)
6.30957344480190e+003	(-5.12696972059502e-001dB,1.31401897478366e+002°)
6.45654229034652e+003	(-5.13203908704868e-001dB,1.26660281632831e+002°)
6.60693448007592e+003	(-5.10501510984708e-001dB,1.21879711609791e+002°)
6.76082975391978e+003	(-5.04156380698089e-001dB,1.17049991080026e+002°)
6.91830970918932e+003	(-4.93910855675170e-001dB,1.12159863899183e+002°)
7.07945784384134e+003	(-4.79719926905676e-001dB,1.07197193057992e+002°)
7.24435960074986e+003	(-4.61785601406967e-001dB,1.02149203870893e+002°)
7.41310241300913e+003	(-4.40586234116828e-001dB,9.70028017601834e+001°)
7.58577575029179e+003	(-4.16897145644489e-001dB,9.17449727669081e+001°)
7.76247116628687e+003	(-3.91797181616177e-001dB,8.63632700684875e+001°)
7.94328234724277e+003	(-3.66654350082631e-001dB,8.08463784947714e+001°)
8.12830516164094e+003	(-3.43082202950876e-001dB,7.51847303860917e+001°)
8.31763771102666e+003	(-3.22858095810298e-001dB,6.93711197816521e+001°)
8.51138038202371e+003	(-3.07795580534890e-001dB,6.34012279518552e+001°)
8.70963589956075e+003	(-2.99566721369435e-001dB,5.72739352069741e+001°)
8.91250938133740e+003	(-2.99476554718675e-001dB,5.09912630884297e+001°)
9.12010839355904e+003	(-3.08201260754109e-001dB,4.45577720331705e+001°)
9.33254300796985e+003	(-3.25512177895779e-001dB,3.79792477321879e+001°)
9.54992586021430e+003	(-3.50017768976046e-001dB,3.12605414693036e+001°)
9.77237220955804e+003	(-3.78962344112086e-001dB,2.44024765394642e+001°)
9.99999999999993e+003	(-4.08123510589514e-001dB,1.73977658330429e+001°)
1.02329299228075e+004	(-4.31853685671492e-001dB,1.02258670131216e+001°)
1.04712854805089e+004	(-4.43324713965932e-001dB,2.84660309005538e+000°)
1.07151930523760e+004	(-4.35078085654768e-001dB,-4.80779954565186e+000°)
1.09647819614318e+004	(-4.00088911379724e-001dB,-1.28427626957287e+001°)
1.12201845430196e+004	(-3.33770712836904e-001dB,-2.14138252843893e+001°)
1.14815362149688e+004	(-2.37745208165899e-001dB,-3.07404140463230e+001°)
1.17489755493952e+004	(-1.26766129030895e-001dB,-4.11146657621086e+001°)
1.20226443461740e+004	(-4.04018533339476e-002dB,-5.28851528034528e+001°)
1.23026877081237e+004	(-5.86054257290031e-002dB,-6.63682379526922e+001°)
1.25892541179416e+004	(-3.09679158087461e-001dB,-8.16229209335319e+001°)
1.28824955169313e+004	(-9.41245799071957e-001dB,-9.81299703161325e+001°)
1.31825673855640e+004	(-2.03860019763299e+000dB,-1.14718614206143e+002°)
1.34896288259164e+004	(-3.55759478197450e+000dB,-1.30079766433301e+002°)
1.38038426460288e+004	(-5.35868890215311e+000dB,-1.43431652916987e+002°)
1.41253754462274e+004	(-7.29585867177354e+000dB,-1.54655895023223e+002°)
1.44543977074592e+004	(-9.26667764793573e+000dB,-1.64013043429873e+002°)
1.47910838816820e+004	(-1.12140616898781e+001dB,-1.71864338755602e+002°)
1.51356124843620e+004	(-1.31112912809133e+001dB,-1.78539096531953e+002°)
1.54881661891247e+004	(-1.49485432394601e+001dB,1.75700655238823e+002°)
1.58489319246110e+004	(-1.67244852572375e+001dB,1.70656684600484e+002°)
1.62181009735892e+004	(-1.84417031940766e+001dB,1.66181187940584e+002°)
1.65958690743755e+004	(-2.01043693092201e+001dB,1.62163733603383e+002°)
1.69824365246173e+004	(-2.17171017933745e+001dB,1.58520994968874e+002°)
1.73780082874936e+004	(-2.32844325512261e+001dB,1.55189254742801e+002°)
1.77827941003891e+004	(-2.48105790701864e+001dB,1.52119075662833e+002°)
1.81970085860997e+004	(-2.62993654979312e+001dB,1.49271534089808e+002°)
1.86208713666285e+004	(-2.77542147014852e+001dB,1.46615547180765e+002°)
1.90546071796323e+004	(-2.91781720813591e+001dB,1.44125959362206e+002°)
1.94984459975803e+004	(-3.05739416270148e+001dB,1.41782156617913e+002°)
1.99526231496887e+004	(-3.19439247423266e+001dB,1.39567050493189e+002°)
2.04173794466951e+004	(-3.32902574503472e+001dB,1.37466323671186e+002°)
2.08929613085402e+004	(-3.46148441741806e+001dB,1.35467862801044e+002°)
2.13796208950222e+004	(-3.59193875560929e+001dB,1.33561326578326e+002°)
2.18776162394954e+004	(-3.72054143466818e+001dB,1.31737813340739e+002°)
2.23872113856832e+004	(-3.84742977381981e+001dB,1.29989602097522e+002°)
2.29086765276776e+004	(-3.97272765194071e+001dB,1.28309948791060e+002°)
2.34422881531990e+004	(-4.09654715001576e+001dB,1.26692924318568e+002°)
2.39883291901947e+004	(-4.21898996012266e+001dB,1.25133284603223e+002°)
2.45470891568501e+004	(-4.34014859522362e+001dB,1.23626365470751e+002°)
2.51188643150956e+004	(-4.46010743010302e+001dB,1.22167996813228e+002°)
2.57039578276884e+004	(-4.57894360125999e+001dB,1.20754432021466e+002°)
2.63026799189536e+004	(-4.69672778411546e+001dB,1.19382289544951e+002°)
2.69153480392689e+004	(-4.81352486966690e+001dB,1.18048504112384e+002°)
2.75422870333814e+004	(-4.92939455268760e+001dB,1.16750285812915e+002°)
2.81838293126443e+004	(-5.04439184668525e+001dB,1.15485085532568e+002°)
2.88403150312658e+004	(-5.15856753496683e+001dB,1.14250565600385e+002°)
2.95120922666636e+004	(-5.27196856743976e+001dB,1.13044574712992e+002°)
3.01995172040199e+004	(-5.38463841112232e+001dB,1.11865126421957e+002°)
3.09029543251357e+004	(-5.49661735927775e+001dB,1.10710380630707e+002°)
3.16227766016835e+004	(-5.60794280702729e+001dB,1.09578627463600e+002°)
3.23593656929626e+004	(-5.71864949555037e+001dB,1.08468273352817e+002°)
3.31131121482588e+004	(-5.82876973036196e+001dB,1.07377828798675e+002°)
3.38844156139200e+004	(-5.93833357663538e+001dB,1.06305897706509e+002°)
3.46736850452529e+004	(-6.04736903393135e+001dB,1.05251167970341e+002°)
3.54813389233573e+004	(-6.15590219348733e+001dB,1.04212403136841e+002°)
3.63078054770098e+004	(-6.26395737984077e+001dB,1.03188435083926e+002°)
3.71535229097169e+004	(-6.37155727831650e+001dB,1.02178157480359e+002°)
3.80189396320558e+004	(-6.47872305046171e+001dB,1.01180519946452e+002°)
3.89045144994277e+004	(-6.58547443860035e+001dB,1.00194522853480e+002°)
3.98107170553494e+004	(-6.69182986046794e+001dB,9.92192126748614e+001°)
4.07380277804109e+004	(-6.79780649530379e+001dB,9.82536777762602e+001°)
4.16869383470332e+004	(-6.90342036204681e+001dB,9.72970446355874e+001°)
4.26579518801589e+004	(-7.00868639054425e+001dB,9.63484744699104e+001°)
4.36515832240162e+004	(-7.11361848648276e+001dB,9.54071601108427e+001°)
4.46683592150959e+004	(-7.21822959063753e+001dB,9.44723232235658e+001°)
4.57088189614871e+004	(-7.32253173283635e+001dB,9.35432117633526e+001°)
4.67735141287194e+004	(-7.42653608134524e+001dB,9.26190976429657e+001°)
4.78630092322634e+004	(-7.53025298804218e+001dB,9.16992746375542e+001°)
4.89778819368442e+004	(-7.63369202958002e+001dB,9.07830564316820e+001°)
5.01187233627268e+004	(-7.73686204507126e+001dB,8.98697748421198e+001°)
5.12861383991360e+004	(-7.83977117053244e+001dB,8.89587781950493e+001°)
5.24807460249768e+004	(-7.94242687034005e+001dB,8.80494298206628e+001°)
5.37031796370248e+004	(-8.04483596590262e+001dB,8.71411066711439e+001°)
5.49540873857620e+004	(-8.14700466189385e+001dB,8.62331980432930e+001°)
