#Digilent WaveForms Network Analyzer - Bode
#Device Name: Discovery2
#Serial Number: SN:210321A35FCC
#Date Time: 2017-12-01 18:09:33.218

Frequency (Hz),Channel 1 Magnitude (dB),Channel 2 Magnitude (dB),Channel 2 Phase (°)
98.661000000000087,0.017780068425473555,-0.45197447698302484,155.22012851062257
99.415867775753611,0.017961876520692845,-0.45394676161756109,155.03073785896402
100.17651114022884,0.018070435518938742,-0.45570652923216914,154.84145664231946
100.94297428318484,0.017638397225013609,-0.45688657230832841,154.65045735614979
101.71530173248185,0.017884850198815416,-0.45829319064177032,154.45886493139818
102.49353835666879,0.017718064953805492,-0.46000822904003819,154.26410571349547
103.27772936758907,0.017807415535665481,-0.46163834360792183,154.06903358910051
104.06792032300802,0.018042534335272635,-0.46336203503661899,153.8732402138485
104.86415712925906,0.017693665666641305,-0.46521815547783296,153.67455243505896
105.66648604391057,0.017732029562321918,-0.46645772955441134,153.47361947993161
106.47495367845367,0.017970158216569353,-0.46818087005795844,153.2703191935114
107.28960700100984,0.017937486764706433,-0.46989650535988892,153.07095371976536
108.11049333905953,0.01801665472232418,-0.47159444286230856,152.86431388772425
108.93766038219191,0.01811226418904284,-0.47358653297181225,152.65625035805007
109.77115618487493,0.017730208054838222,-0.47469051380392857,152.44789573667344
110.61102916924737,0.018086789908371988,-0.47703772617751655,152.24029683274557
111.45732812793214,0.018120233088209169,-0.47868928308549502,152.02714790337353
112.31010222687055,0.017576748024904807,-0.48025857181171983,151.81783624557573
113.16940100817887,0.017762231073039224,-0.48247646867183136,151.60226889550046
114.03527439302601,0.018149253279131097,-0.48453811765870392,151.38634666417417
114.90777268453435,0.017981855986643362,-0.48662278611490872,151.16809226502374
115.7869465707018,0.018092653598063738,-0.48799590786995972,150.94832573159147
116.67284712734657,0.017761124185696309,-0.49002804285343898,150.72677614168299
117.5655258210741,0.018092858196156306,-0.49192178246497575,150.50418399718708
118.46503451226778,0.01809076335977421,-0.49397733920162212,150.28286861229722
119.37142545810089,0.017953183240381938,-0.49590392054371568,150.05759793709089
120.28475131557329,0.017804353913224529,-0.49814078957637203,149.82931346840775
121.20506514457007,0.018110138582283469,-0.49999065368541151,149.60110751095434
122.13242041094438,0.018178590433520835,-0.50236724752508799,149.3704674944596
123.06687098962291,0.017896489936502374,-0.50375008459233195,149.13573775437843
124.00847116773669,0.017906488386424016,-0.50591757014848604,148.90172876602151
124.95727564777424,0.017595828695256353,-0.50757631458261709,148.66629429772118
125.91333955075989,0.017883453611023954,-0.51005291621964499,148.4279236553958
126.87671841945566,0.017809795923291023,-0.511917073468523,148.18640282793197
127.84746822158823,0.017902061518905568,-0.51418224845140892,147.94634295363943
128.82564535310067,0.017432071235096883,-0.51611438003899257,147.70129535902527
129.81130664142844,0.017967557003737575,-0.51886784237725481,147.45805996625521
130.80450934880091,0.017737614848082464,-0.52086372704166783,147.20659100563745
131.80531117556808,0.017459886731092826,-0.52321896770199872,146.95750274881476
132.81377026355219,0.017633003057242854,-0.5255126811876083,146.70714389124038
133.82994519942642,0.017657903925937107,-0.52737771667577438,146.4543093861281
134.8538950181179,0.017851250901901317,-0.52982428470258525,146.20067953577316
135.88567920623723,0.017920840206517359,-0.53219852215122498,145.94208835975729
136.92535770553451,0.017517390809113784,-0.53459036724885489,145.68239951107694
137.97299091638206,0.017701044861975046,-0.53652396460819818,145.42648362738095
139.028639701283,0.017878445264281929,-0.53918104655369936,145.15991106459501
140.09236538840705,0.018042900452971859,-0.54159344633574202,144.89669128086487
141.1642297751537,0.017839409677020079,-0.54331662027335592,144.63127877278541
142.24429513174172,0.017553866375491618,-0.54569301283717708,144.35873917933134
143.3326242048276,0.017438212773134686,-0.54840114980216847,144.08702079427638
144.42928022115044,0.017536121520476965,-0.55047726854562995,143.81757308250496
145.5343268912047,0.017898832684052974,-0.55358096362715725,143.53876624602856
146.6478284129424,0.017736034017641698,-0.55557187217887261,143.26353526781651
147.76984947550167,0.017590539605648312,-0.55832487179608747,142.98214672684463
148.90045526296589,0.017677042939558775,-0.56076910101591682,142.69947557587579
150.03971145814984,0.017919516517562573,-0.5634830416771307,142.4172641131172
151.18768424641584,0.017648438783773385,-0.56569247380970245,142.13100505763535
152.34444031951904,0.017754877350600502,-0.56833668616187627,141.84723685748293
153.51004687948102,0.017735079744213952,-0.5708274497777367,141.5515471061066
154.68457164249529,0.017469669105394062,-0.57301073021893079,141.26073411856922
155.86808284285974,0.017949173009741585,-0.5762334553107461,140.96634933228734
157.06064923694203,0.017850802666427315,-0.57859610295266506,140.66854730831955
158.26234010717354,0.017474289188954956,-0.58102168011159439,140.36976356826375
159.47322526607374,0.017754623479692026,-0.58376625233455759,140.06707079055582
160.69337506030695,0.0177623654797214,-0.58638679965240803,139.76351779908077
161.92286037476859,0.017730685660536292,-0.58855912907839292,139.4575879676608
163.1617526367034,0.017614471827399041,-0.59118539981569096,139.14681144544593
164.4101238198551,0.0174731572885116,-0.59372764227917574,138.83287264981479
165.66804644864735,0.017417134422378536,-0.59618780033594554,138.51851395842164
166.93559360239729,0.017758790712128863,-0.59912206455274053,138.20079720101575
168.21283891956148,0.017468678000796479,-0.60195502171649429,137.88202234781966
169.49985660201344,0.017682326034910354,-0.60431210783821998,137.56033520271401
170.79672141935487,0.01783236238262946,-0.60730014920718456,137.23636276024877
172.10350871325846,0.018015526973014541,-0.61014601488433107,136.9117574744262
173.42029440184621,0.017735638513727267,-0.61246196000912312,136.58279787401631
174.74715498409901,0.017849377961297454,-0.61508695845807404,136.25270584891106
176.08416754430132,0.017535131918019056,-0.61742476055372519,135.91525580396541
177.43140975651869,0.017747642877760515,-0.62030773428675945,135.57744316840655
178.78895988911142,0.017577977313540365,-0.62247383411992674,135.23528215637219
180.15689680928028,0.017440667615518716,-0.62531623116540458,134.89646710000972
181.53529998764944,0.017401701130909403,-0.62782979424645813,134.54732422730129
182.92424950288284,0.01764529965694531,-0.63043837936703206,134.20125202685659
184.32382604633594,0.017730714701988178,-0.63329062656695856,133.84801374197815
185.73411092674436,0.017720785056767423,-0.63567900944144706,133.4924155153098
187.1551860749471,0.017805582519523071,-0.63816420127407458,133.13595695488058
188.58713404864625,0.017431291340826036,-0.64071075817653478,132.77468741002977
190.03003803720358,0.017360865906957845,-0.64295337529884122,132.41152141125355
191.4839818664727,0.017726002484145135,-0.6462950550539075,132.0470607747877
192.94905000366947,0.017386587690086285,-0.64853411100804348,131.67753067474388
194.42532756227951,0.017547372866207743,-0.65113141975751665,131.30308460016502
195.91290030700225,0.01746141314181518,-0.65274748700790108,130.93202220518634
197.41185465873383,0.01758238432987852,-0.6556722398510666,130.55276565053111
198.922277699587,0.017374366674223304,-0.65749059780683583,130.1690122463848
200.44425717795144,0.017724016379734527,-0.66021795750455692,129.78421437147165
201.97788151359049,0.017612036361460602,-0.66268789815622731,129.39391725464156
203.52323980277865,0.017724242741033396,-0.6649957964853398,129.002388114474
205.08042182347677,0.017649665682753064,-0.6673835637365455,128.60598713478291
206.64951804054814,0.017335469360709725,-0.66921542553686808,128.20847660336835
208.23061961101479,0.017650692957061603,-0.67207714384130635,127.80651287068079
209.82381838935217,0.01749635662583102,-0.67417269181894568,127.40282507053689
211.42920693282613,0.017768856628457973,-0.67633863532452254,126.99084272612627
213.04687850686992,0.01758276359130672,-0.67820176499458062,126.57971340451542
214.67692709050186,0.017487502337478235,-0.67983935266032258,126.16165718120122
216.31944738178623,0.017753035018355293,-0.68238798136385093,125.74261487138172
217.97453480333419,0.017669653042422018,-0.68413129087158331,125.31391236647005
219.64228550784662,0.017770012236292303,-0.68607604601792693,124.89019644831423
221.32279638370184,0.017800388594613081,-0.68800664182639848,124.45604060791
223.01616506058244,0.017551278387932617,-0.68908354713847553,124.0228654402614
224.72248991514871,0.017478787679361025,-0.69108348637985806,123.58490703848145
226.44187007675302,0.01715159059717709,-0.69204192272203624,123.13768545891267
228.1744054331989,0.017392568227708551,-0.69366169321466054,122.69246564820222
229.92019663654432,0.017311276534592749,-0.69534841013794157,122.24053071636405
231.67934510894824,0.017584597385588055,-0.69713986893334989,121.78307160337924
233.45195304856418,0.017805074877340663,-0.69817445871067318,121.32164744475307
235.23812343547581,0.017369776755266762,-0.69872042643231924,120.85687862597416
237.03796003768102,0.017537515839275833,-0.7002033271836825,120.38681933875395
238.85156741711992,0.01751943741737938,-0.70123669475938788,119.91437970308505
240.67905093574839,0.017377093304565171,-0.70197427845849647,119.43317721554553
242.52051676166073,0.017065023197611863,-0.70276357365436126,118.95345512482919
244.37607187525649,0.017054588960078679,-0.70334332143233524,118.46151399671345
246.24582407545572,0.017373759074115577,-0.70418886038985162,117.96913381049831
248.12988198596196,0.017133316444629506,-0.70410019678949332,117.47177293172442
250.02835506157194,0.01706460689773057,-0.70441334694727109,116.96823527832714
251.94135359453469,0.017535953822236029,-0.704858971565962,116.46058684510254
253.86898872095995,0.017286752780907112,-0.70480932856324829,115.945442708104
255.81137242727337,0.017079495117085338,-0.70512286590821538,115.42577276111666
257.76861755672326,0.017536577747552157,-0.70525400590597587,114.90387316096462
259.74083781593515,0.017229537012064842,-0.70438755647270357,114.37150554113501
261.72814778151906,0.017502052584463777,-0.70434839439859065,113.83535985713428
263.73066290672477,0.017424570273991816,-0.70404492727076662,113.29629117617964
265.74849952814998,0.017718387888000842,-0.70285556793246495,112.74716066131492
267.78177487249729,0.017379524133361801,-0.70200722814194849,112.19205011613889
269.83060706338694,0.017265821523148598,-0.70085741214624142,111.63253853244538
271.89511512821656,0.01742003944677064,-0.69932555733941426,111.0687252115286
273.97541900507866,0.016952893623919565,-0.69783024328122489,110.49653297761967
276.07163954972651,0.017350373298208755,-0.69677255082292844,109.91490177289174
278.18389854259664,0.016904986052223354,-0.69483093057948597,109.33122541450187
280.31231869588208,0.017479552381836509,-0.69309142891639308,108.738324513442
282.4570236606632,0.017427354250642364,-0.69138635418346417,108.13785375303974
284.61813803409024,0.017590209422749008,-0.68902793936976647,107.53219367110125
286.79578736662216,0.01736067936121782,-0.68605260414851033,106.91625568143097
288.99009816931982,0.017605990478391623,-0.68354356146611106,106.29592235488589
291.20119792119613,0.017278863886083094,-0.68049113643255188,105.66606046427901
293.4292150766226,0.017327511277676878,-0.67768260346791198,105.03031105503983
295.67427907279125,0.017543534845548596,-0.67391615884763234,104.38480249307348
297.93652033723419,0.017452428060181813,-0.67013361516221059,103.73132823413445
300.21607029540149,0.017409981847717429,-0.66609802709479693,103.07024054641622
302.51306137829494,0.017067947701316179,-0.66234131315744638,102.39910253315227
304.82762703016368,0.01724044449823629,-0.65850812974932382,101.72066840241061
307.1599017162556,0.017176698629389853,-0.65345283857289937,101.03234228513644
309.51002093062829,0.01705807637305444,-0.64868083348655581,100.33439690349985
311.87812120402265,0.01706579478730276,-0.64393175665054359,99.627266802968776
314.26434011179236,0.016996514515758947,-0.63829467148127139,98.91026358050884
316.6688162818985,0.017108950014570454,-0.63298489731500074,98.18182503819051
319.09168940296172,0.017034147436992487,-0.62729300373599828,97.4448383500646
321.53310023237805,0.017346597178269359,-0.62174094548169989,96.697998066777245
323.99319060449653,0.01717708363959362,-0.61528219475465884,95.940041703170209
326.47210343885769,0.01725515978805605,-0.6086757664580813,95.167115768875732
328.96998274849875,0.016930628893658359,-0.60201042000985305,94.387099549314314
331.4869736483177,0.016739830277879036,-0.5949310343725418,93.594466216233954
334.02322236350579,0.016964418678534456,-0.58815582940276767,92.786761491526818
336.5788762380418,0.016671251961483648,-0.58023023446521449,91.972335733117362
339.15408374325085,0.016986872398791771,-0.57296106762857013,91.14132853519709
341.74899448643197,0.017060332478511294,-0.56553003667707613,90.297691326794791
344.36375921954817,0.017160831807231887,-0.55706557369968723,89.439069909036448
346.99852984798474,0.017300371802002175,-0.54885626189808423,88.568918799424523
349.65345943937473,0.016900141106590518,-0.53966918018122456,87.684500728105547
352.32870223249017,0.017041291955816475,-0.53098982639535097,86.784875803673913
355.02441364620347,0.017250671367391855,-0.52223830525318149,85.868364958802431
357.74075028851706,0.016986555310162455,-0.51283066014506073,84.940308536541067
360.47786996566094,0.017290298516220975,-0.50378797794345831,83.993480913230712
363.23593169126059,0.017023906774104518,-0.49440971225152752,83.029868662914623
366.01509569557373,0.017336064743204458,-0.48441752273723004,82.051264411474492
368.81552343480132,0.017175270727304414,-0.47507482542731733,81.052231351052157
371.63737760046558,0.017187176361286239,-0.46525483306762339,80.041150562912605
374.48082212886248,0.017200672576945377,-0.45529028310417552,79.007110012404226
377.34602221058481,0.016668569021477127,-0.4448214868342224,77.954196897836312
380.23314430011914,0.017411608150427353,-0.43545525320499667,76.883216413982495
383.14235612551721,0.017026062589220788,-0.42522297432342088,75.793519355825822
386.07382669813893,0.017060241310513407,-0.41528789591577264,74.684101538937185
389.02772632247149,0.017059782243972192,-0.40548730998363336,73.553471752776716
392.00422660602368,0.016978254284516939,-0.39633204886957157,72.395440994203824
395.00350046929356,0.01689981626145811,-0.38643471122516432,71.220507998122244
398.02572215581722,0.017117366988210848,-0.37776823532556691,70.024057097097938
401.07106724229004,0.017289648884637829,-0.36871313750483864,68.802566663187349
404.13971264876551,0.017094747032030629,-0.3599305654433429,67.557713850340832
407.23183664893656,0.017279087605797071,-0.35191655035477265,66.290699677466478
410.34761888048911,0.01698588542193448,-0.34384320138896002,64.99820011912918
413.48724035554085,0.01721499433667751,-0.3363273974673287,63.678566218416947
416.65088347115579,0.016961511440747153,-0.3299046512395557,62.331640640931518
419.8387320199397,0.017423458015605027,-0.3234046793540013,60.956434347538256
423.05097120072151,0.016709328637963039,-0.31769528198269747,59.561838731181275
426.28778762930682,0.017184659701330519,-0.31303043592372298,58.139509606369387
429.54936934932414,0.016810125777565174,-0.30923776301066019,56.67810661952899
432.83590584314737,0.016483202857666586,-0.30602336483900444,55.196687132637962
436.1475880429029,0.01701941684466492,-0.30367609800820583,53.68501489605417
439.48460834156452,0.016507934280455803,-0.30345684770615766,52.142230904242169
442.84716060412734,0.016680842459927892,-0.30345897776237996,50.573930973312741
446.23544017887315,0.016937214684364776,-0.30547895086823779,48.967747306595413
449.64964390871842,0.016498552793657816,-0.30806555120030366,47.333812469356531
453.08997014264816,0.016627579651747909,-0.31210024817074367,45.670034416558295
456.55661874724177,0.017312642770820411,-0.31844438536411196,43.973711176644542
460.04979111828283,0.016559496168316708,-0.32530680154503666,42.242942713153326
463.5696901924598,0.016881839609502791,-0.33413456925896579,40.483568488657767
467.11652045915463,0.016967737247591035,-0.34401216168899063,38.69050743243838
470.6904879723233,0.017065471809281182,-0.35592422709744248,36.859938390020631
474.29180036246737,0.017144420054208569,-0.36966582234881962,35.001193923835231
477.92066684869553,0.016276872511404961,-0.38493353228534422,33.103751238954118
481.57729825087785,0.016673640306723993,-0.40173985799339862,31.17607600494587
485.26190700189477,0.016960367249408078,-0.42054826356662295,29.217962269349741
488.97470715997582,0.01688139343365869,-0.44107364477596234,27.219193320320066
492.71591442113862,0.016418879095441128,-0.46246129373601497,25.187976561666421
496.48574613171826,0.016834030126414542,-0.4849479472815611,23.1186051507446
500.28442130099268,0.01718512707075286,-0.50960286787099363,21.01230138861682
504.11216061390928,0.016997755417926537,-0.53517799484029649,18.86879610348528
507.96918644390217,0.017444567160346321,-0.55986324776531304,16.691748638643809
511.85572286581396,0.016700430471935975,-0.58682678943333499,14.460864212630172
515.7719956689117,0.016341180315605559,-0.61267966355729864,12.196326081986996
519.71823237000478,0.016537477674348537,-0.63941642335687221,9.8930109158892066
523.69466222666301,0.016916929550872279,-0.66572842596671644,7.5168291248414558
527.7015162505329,0.016410805225871915,-0.69158498073843022,5.1256727158326783
531.73902722076286,0.016837958052255162,-0.7152082943092396,2.6707197657138977
535.80742969752146,0.016333246369599801,-0.74046685935322387,0.1454150759918349
539.90696003562846,0.01636835199740648,-0.7596392980315626,-2.3938506107214153
544.03785639828448,0.016364374358774414,-0.76442024273774289,-5.0257008169730284
548.2003587709047,0.016662548823851417,-0.77607761105653794,-7.7291460101922951
552.39470897506521,0.016852232857434556,-0.78557932548271381,-10.60487300913357
556.62115068254866,0.016230630705475466,-0.77292808507614941,-13.51191076765582
560.87992942950143,0.01693582584314474,-0.75418578742628972,-16.65084166939198
565.17129263069842,0.016678909196236616,-0.74320782540593444,-19.877382692438175
569.49548959391518,0.016597447884510216,-0.73062116564655866,-23.27752705306321
573.85277153441268,0.016508067689582507,-0.7229356125846309,-26.756395359759097
578.24339158953262,0.016578757080089199,-0.68442761860381429,-30.624450021637003
582.66760483340158,0.016615306478531055,-0.66029462580322118,-34.371674008320241
587.12566829175171,0.016074057557767363,-0.61496484527918815,-38.615434184279152
591.61784095684936,0.016755684210269114,-0.52601016222881114,-43.222172542536406
596.14438380254524,0.016903529250215946,-0.45196235932016138,-48.499349675001106
600.70555979943333,0.016349333000307383,-0.41235858251451452,-54.275391126830968
605.30163393012981,0.016856175909360567,-0.38596473180471352,-60.453333431239408
609.93287320466391,0.016580561503546969,-0.43029333185705132,-67.100363812756825
614.59954667599527,0.016464474375468302,-0.54280838463282621,-74.786713677986839
619.30192545563898,0.0169183561983,-0.81379221849933248,-82.526667769703778
624.0402827294206,0.016965331144923351,-1.0885454737067333,-90.980633147785795
628.81489377334435,0.015991569621659131,-1.5597459521160313,-99.193573367118972
633.62603596958638,0.016932360482788733,-2.171880429980384,-107.85436030043891
638.47398882260723,0.017093148448070614,-2.8611342530030455,-116.65079468621656
643.359033975393,0.016741173331822849,-3.7343358652201535,-125.27840912333485
648.28145522581553,0.016724993146022344,-4.860689913581651,-133.49581826794687
