Freq.	V(feedb)/V(inv)
1.00000000000000e-001	(9.52570655766631e+000dB,9.44541309075949e+001°)
1.00115195553817e-001	(9.51576680672781e+000dB,9.44490259503031e+001°)
1.00230523807790e-001	(9.50582691805332e+000dB,9.44439267957074e+001°)
1.00345984914784e-001	(9.49588689195576e+000dB,9.44388334373721e+001°)
1.00461579027840e-001	(9.48594672874732e+000dB,9.44337458688681e+001°)
1.00577306300174e-001	(9.47600642873974e+000dB,9.44286640837726e+001°)
1.00693166885180e-001	(9.46606599224388e+000dB,9.44235880756697e+001°)
1.00809160936430e-001	(9.45612541956988e+000dB,9.44185178381501e+001°)
1.00925288607668e-001	(9.44618471102710e+000dB,9.44134533648108e+001°)
1.01041550052821e-001	(9.43624386692450e+000dB,9.44083946492554e+001°)
1.01157945425990e-001	(9.42630288757010e+000dB,9.44033416850942e+001°)
1.01274474881453e-001	(9.41636177327140e+000dB,9.43982944659440e+001°)
1.01391138573668e-001	(9.40642052433499e+000dB,9.43932529854281e+001°)
1.01507936657269e-001	(9.39647914106689e+000dB,9.43882172371764e+001°)
1.01624869287070e-001	(9.38653762377248e+000dB,9.43831872148253e+001°)
1.01741936618061e-001	(9.37659597275643e+000dB,9.43781629120176e+001°)
1.01859138805412e-001	(9.36665418832272e+000dB,9.43731443224028e+001°)
1.01976476004472e-001	(9.35671227077455e+000dB,9.43681314396370e+001°)
1.02093948370768e-001	(9.34677022041459e+000dB,9.43631242573826e+001°)
1.02211556060007e-001	(9.33682803754478e+000dB,9.43581227693085e+001°)
1.02329299228076e-001	(9.32688572246630e+000dB,9.43531269690903e+001°)
1.02447178031038e-001	(9.31694327547975e+000dB,9.43481368504100e+001°)
1.02565192625141e-001	(9.30700069688503e+000dB,9.43431524069561e+001°)
1.02683343166809e-001	(9.29705798698130e+000dB,9.43381736324234e+001°)
1.02801629812648e-001	(9.28711514606723e+000dB,9.43332005205137e+001°)
1.02920052719443e-001	(9.27717217444058e+000dB,9.43282330649347e+001°)
1.03038612044162e-001	(9.26722907239859e+000dB,9.43232712594009e+001°)
1.03157307943951e-001	(9.25728584023780e+000dB,9.43183150976332e+001°)
1.03276140576140e-001	(9.24734247825409e+000dB,9.43133645733590e+001°)
1.03395110098237e-001	(9.23739898674267e+000dB,9.43084196803120e+001°)
1.03514216667935e-001	(9.22745536599802e+000dB,9.43034804122326e+001°)
1.03633460443104e-001	(9.21751161631411e+000dB,9.42985467628676e+001°)
1.03752841581801e-001	(9.20756773798412e+000dB,9.42936187259699e+001°)
1.03872360242262e-001	(9.19762373130063e+000dB,9.42886962952994e+001°)
1.03992016582906e-001	(9.18767959655550e+000dB,9.42837794646220e+001°)
1.04111810762334e-001	(9.17773533403994e+000dB,9.42788682277103e+001°)
1.04231742939331e-001	(9.16779094404470e+000dB,9.42739625783431e+001°)
1.04351813272863e-001	(9.15784642685964e+000dB,9.42690625103059e+001°)
1.04472021922080e-001	(9.14790178277394e+000dB,9.42641680173903e+001°)
1.04592369046317e-001	(9.13795701207639e+000dB,9.42592790933945e+001°)
1.04712854805090e-001	(9.12801211505487e+000dB,9.42543957321230e+001°)
1.04833479358100e-001	(9.11806709199672e+000dB,9.42495179273870e+001°)
1.04954242865233e-001	(9.10812194318871e+000dB,9.42446456730037e+001°)
1.05075145486555e-001	(9.09817666891687e+000dB,9.42397789627969e+001°)
1.05196187382323e-001	(9.08823126946657e+000dB,9.42349177905968e+001°)
1.05317368712972e-001	(9.07828574512255e+000dB,9.42300621502398e+001°)
1.05438689639126e-001	(9.06834009616906e+000dB,9.42252120355690e+001°)
1.05560150321593e-001	(9.05839432288942e+000dB,9.42203674404336e+001°)
1.05681750921366e-001	(9.04844842556654e+000dB,9.42155283586893e+001°)
1.05803491599623e-001	(9.03850240448259e+000dB,9.42106947841980e+001°)
1.05925372517729e-001	(9.02855625991925e+000dB,9.42058667108281e+001°)
1.06047393837234e-001	(9.01860999215736e+000dB,9.42010441324545e+001°)
1.06169555719873e-001	(9.00866360147722e+000dB,9.41962270429581e+001°)
1.06291858327569e-001	(8.99871708815866e+000dB,9.41914154362264e+001°)
1.06414301822432e-001	(8.98877045248050e+000dB,9.41866093061531e+001°)
1.06536886366757e-001	(8.97882369472131e+000dB,9.41818086466384e+001°)
1.06659612123026e-001	(8.96887681515885e+000dB,9.41770134515886e+001°)
1.06782479253910e-001	(8.95892981407031e+000dB,9.41722237149165e+001°)
1.06905487922266e-001	(8.94898269173220e+000dB,9.41674394305412e+001°)
1.07028638291139e-001	(8.93903544842041e+000dB,9.41626605923880e+001°)
1.07151930523761e-001	(8.92908808441030e+000dB,9.41578871943886e+001°)
1.07275364783553e-001	(8.91914059997645e+000dB,9.41531192304810e+001°)
1.07398941234125e-001	(8.90919299539311e+000dB,9.41483566946095e+001°)
1.07522660039273e-001	(8.89924527093347e+000dB,9.41435995807248e+001°)
1.07646521362984e-001	(8.88929742687061e+000dB,9.41388478827835e+001°)
1.07770525369433e-001	(8.87934946347655e+000dB,9.41341015947489e+001°)
1.07894672222983e-001	(8.86940138102305e+000dB,9.41293607105905e+001°)
1.08018962088189e-001	(8.85945317978102e+000dB,9.41246252242839e+001°)
1.08143395129794e-001	(8.84950486002081e+000dB,9.41198951298111e+001°)
1.08267971512730e-001	(8.83955642201221e+000dB,9.41151704211604e+001°)
1.08392691402121e-001	(8.82960786602433e+000dB,9.41104510923262e+001°)
1.08517554963279e-001	(8.81965919232587e+000dB,9.41057371373093e+001°)
1.08642562361707e-001	(8.80971040118472e+000dB,9.41010285501168e+001°)
1.08767713763100e-001	(8.79976149286819e+000dB,9.40963253247617e+001°)
1.08893009333344e-001	(8.78981246764304e+000dB,9.40916274552636e+001°)
1.09018449238513e-001	(8.77986332577535e+000dB,9.40869349356483e+001°)
1.09144033644876e-001	(8.76991406753074e+000dB,9.40822477599478e+001°)
1.09269762718891e-001	(8.75996469317420e+000dB,9.40775659222000e+001°)
1.09395636627210e-001	(8.75001520297003e+000dB,9.40728894164494e+001°)
1.09521655536674e-001	(8.74006559718187e+000dB,9.40682182367468e+001°)
1.09647819614319e-001	(8.73011587607315e+000dB,9.40635523771487e+001°)
1.09774129027372e-001	(8.72016603990623e+000dB,9.40588918317184e+001°)
1.09900583943253e-001	(8.71021608894302e+000dB,9.40542365945249e+001°)
1.10027184529574e-001	(8.70026602344516e+000dB,9.40495866596438e+001°)
1.10153930954142e-001	(8.69031584367322e+000dB,9.40449420211565e+001°)
1.10280823384956e-001	(8.68036554988744e+000dB,9.40403026731509e+001°)
1.10407861990208e-001	(8.67041514234759e+000dB,9.40356686097210e+001°)
1.10535046938285e-001	(8.66046462131253e+000dB,9.40310398249668e+001°)
1.10662378397767e-001	(8.65051398704085e+000dB,9.40264163129946e+001°)
1.10789856537429e-001	(8.64056323979031e+000dB,9.40217980679170e+001°)
1.10917481526241e-001	(8.63061237981821e+000dB,9.40171850838526e+001°)
1.11045253533365e-001	(8.62066140738126e+000dB,9.40125773549262e+001°)
1.11173172728160e-001	(8.61071032273572e+000dB,9.40079748752686e+001°)
1.11301239280180e-001	(8.60075912613693e+000dB,9.40033776390169e+001°)
1.11429453359174e-001	(8.59080781784009e+000dB,9.39987856403144e+001°)
1.11557815135086e-001	(8.58085639809942e+000dB,9.39941988733105e+001°)
1.11686324778057e-001	(8.57090486716875e+000dB,9.39896173321605e+001°)
1.11814982458423e-001	(8.56095322530146e+000dB,9.39850410110261e+001°)
1.11943788346716e-001	(8.55100147275013e+000dB,9.39804699040750e+001°)
1.12072742613665e-001	(8.54104960976686e+000dB,9.39759040054811e+001°)
1.12201845430197e-001	(8.53109763660327e+000dB,9.39713433094242e+001°)
1.12331096967433e-001	(8.52114555351034e+000dB,9.39667878100905e+001°)
1.12460497396693e-001	(8.51119336073848e+000dB,9.39622375016720e+001°)
1.12590046889495e-001	(8.50124105853750e+000dB,9.39576923783669e+001°)
1.12719745617552e-001	(8.49128864715663e+000dB,9.39531524343798e+001°)
1.12849593752777e-001	(8.48133612684467e+000dB,9.39486176639209e+001°)
1.12979591467281e-001	(8.47138349784970e+000dB,9.39440880612067e+001°)
1.13109738933371e-001	(8.46143076041937e+000dB,9.39395636204598e+001°)
1.13240036323556e-001	(8.45147791480077e+000dB,9.39350443359088e+001°)
1.13370483810542e-001	(8.44152496124029e+000dB,9.39305302017884e+001°)
1.13501081567232e-001	(8.43157189998390e+000dB,9.39260212123394e+001°)
1.13631829766732e-001	(8.42161873127701e+000dB,9.39215173618085e+001°)
1.13762728582344e-001	(8.41166545536436e+000dB,9.39170186444487e+001°)
1.13893778187571e-001	(8.40171207249025e+000dB,9.39125250545189e+001°)
1.14024978756118e-001	(8.39175858289843e+000dB,9.39080365862839e+001°)
1.14156330461885e-001	(8.38180498683193e+000dB,9.39035532340147e+001°)
1.14287833478978e-001	(8.37185128453358e+000dB,9.38990749919884e+001°)
1.14419487981699e-001	(8.36189747624531e+000dB,9.38946018544880e+001°)
1.14551294144554e-001	(8.35194356220862e+000dB,9.38901338158024e+001°)
1.14683252142249e-001	(8.34198954266455e+000dB,9.38856708702268e+001°)
1.14815362149689e-001	(8.33203541785341e+000dB,9.38812130120623e+001°)
1.14947624341984e-001	(8.32208118801529e+000dB,9.38767602356158e+001°)
1.15080038894444e-001	(8.31212685338937e+000dB,9.38723125352005e+001°)
1.15212605982582e-001	(8.30217241421460e+000dB,9.38678699051354e+001°)
1.15345325782110e-001	(8.29221787072910e+000dB,9.38634323397455e+001°)
1.15478198468947e-001	(8.28226322317074e+000dB,9.38589998333620e+001°)
1.15611224219211e-001	(8.27230847177654e+000dB,9.38545723803218e+001°)
1.15744403209225e-001	(8.26235361678331e+000dB,9.38501499749678e+001°)
1.15877735615513e-001	(8.25239865842700e+000dB,9.38457326116490e+001°)
1.16011221614806e-001	(8.24244359694348e+000dB,9.38413202847204e+001°)
1.16144861384035e-001	(8.23248843256754e+000dB,9.38369129885428e+001°)
1.16278655100336e-001	(8.22253316553385e+000dB,9.38325107174830e+001°)
1.16412602941050e-001	(8.21257779607637e+000dB,9.38281134659139e+001°)
1.16546705083721e-001	(8.20262232442854e+000dB,9.38237212282140e+001°)
1.16680961706097e-001	(8.19266675082333e+000dB,9.38193339987682e+001°)
1.16815372986133e-001	(8.18271107549317e+000dB,9.38149517719669e+001°)
1.16949939101988e-001	(8.17275529866990e+000dB,9.38105745422066e+001°)
1.17084660232025e-001	(8.16279942058490e+000dB,9.38062023038898e+001°)
1.17219536554814e-001	(8.15284344146904e+000dB,9.38018350514249e+001°)
1.17354568249130e-001	(8.14288736155266e+000dB,9.37974727792262e+001°)
1.17489755493954e-001	(8.13293118106544e+000dB,9.37931154817137e+001°)
1.17625098468473e-001	(8.12297490023681e+000dB,9.37887631533136e+001°)
1.17760597352082e-001	(8.11301851929542e+000dB,9.37844157884578e+001°)
1.17896252324380e-001	(8.10306203846965e+000dB,9.37800733815842e+001°)
1.18032063565174e-001	(8.09310545798713e+000dB,9.37757359271366e+001°)
1.18168031254479e-001	(8.08314877807506e+000dB,9.37714034195646e+001°)
1.18304155572518e-001	(8.07319199896020e+000dB,9.37670758533236e+001°)
1.18440436699718e-001	(8.06323512086867e+000dB,9.37627532228752e+001°)
1.18576874816717e-001	(8.05327814402625e+000dB,9.37584355226865e+001°)
1.18713470104361e-001	(8.04332106865805e+000dB,9.37541227472307e+001°)
1.18850222743703e-001	(8.03336389498865e+000dB,9.37498148909867e+001°)
1.18987132916005e-001	(8.02340662324238e+000dB,9.37455119484393e+001°)
1.19124200802739e-001	(8.01344925364276e+000dB,9.37412139140793e+001°)
1.19261426585583e-001	(8.00349178641302e+000dB,9.37369207824031e+001°)
1.19398810446428e-001	(7.99353422177569e+000dB,9.37326325479131e+001°)
1.19536352567373e-001	(7.98357655995290e+000dB,9.37283492051175e+001°)
1.19674053130725e-001	(7.97361880116642e+000dB,9.37240707485303e+001°)
1.19811912319005e-001	(7.96366094563722e+000dB,9.37197971726712e+001°)
1.19949930314939e-001	(7.95370299358606e+000dB,9.37155284720661e+001°)
1.20088107301468e-001	(7.94374494523291e+000dB,9.37112646412462e+001°)
1.20226443461742e-001	(7.93378680079754e+000dB,9.37070056747490e+001°)
1.20364938979123e-001	(7.92382856049911e+000dB,9.37027515671173e+001°)
1.20503594037181e-001	(7.91387022455609e+000dB,9.36985023129002e+001°)
1.20642408819701e-001	(7.90391179318684e+000dB,9.36942579066523e+001°)
1.20781383510679e-001	(7.89395326660879e+000dB,9.36900183429340e+001°)
1.20920518294322e-001	(7.88399464503929e+000dB,9.36857836163116e+001°)
1.21059813355049e-001	(7.87403592869486e+000dB,9.36815537213570e+001°)
1.21199268877494e-001	(7.86407711779182e+000dB,9.36773286526480e+001°)
1.21338885046499e-001	(7.85411821254569e+000dB,9.36731084047682e+001°)
1.21478662047124e-001	(7.84415921317183e+000dB,9.36688929723068e+001°)
1.21618600064638e-001	(7.83420011988489e+000dB,9.36646823498590e+001°)
1.21758699284527e-001	(7.82424093289915e+000dB,9.36604765320255e+001°)
1.21898959892488e-001	(7.81428165242818e+000dB,9.36562755134129e+001°)
1.22039382074433e-001	(7.80432227868548e+000dB,9.36520792886335e+001°)
1.22179966016488e-001	(7.79436281188363e+000dB,9.36478878523053e+001°)
1.22320711904994e-001	(7.78440325223504e+000dB,9.36437011990521e+001°)
1.22461619926506e-001	(7.77444359995154e+000dB,9.36395193235033e+001°)
1.22602690267794e-001	(7.76448385524438e+000dB,9.36353422202942e+001°)
1.22743923115842e-001	(7.75452401832444e+000dB,9.36311698840658e+001°)
1.22885318657852e-001	(7.74456408940221e+000dB,9.36270023094646e+001°)
1.23026877081240e-001	(7.73460406868746e+000dB,9.36228394911430e+001°)
1.23168598573637e-001	(7.72464395638966e+000dB,9.36186814237591e+001°)
1.23310483322892e-001	(7.71468375271777e+000dB,9.36145281019765e+001°)
1.23452531517070e-001	(7.70472345788028e+000dB,9.36103795204648e+001°)
1.23594743344452e-001	(7.69476307208530e+000dB,9.36062356738989e+001°)
1.23737118993537e-001	(7.68480259554021e+000dB,9.36020965569599e+001°)
1.23879658653038e-001	(7.67484202845211e+000dB,9.35979621643341e+001°)
1.24022362511890e-001	(7.66488137102772e+000dB,9.35938324907136e+001°)
1.24165230759243e-001	(7.65492062347298e+000dB,9.35897075307964e+001°)
1.24308263584464e-001	(7.64495978599376e+000dB,9.35855872792857e+001°)
1.24451461177140e-001	(7.63499885879511e+000dB,9.35814717308910e+001°)
1.24594823727076e-001	(7.62503784208189e+000dB,9.35773608803267e+001°)
1.24738351424296e-001	(7.61507673605832e+000dB,9.35732547223134e+001°)
1.24882044459041e-001	(7.60511554092820e+000dB,9.35691532515773e+001°)
1.25025903021773e-001	(7.59515425689490e+000dB,9.35650564628499e+001°)
1.25169927303174e-001	(7.58519288416130e+000dB,9.35609643508685e+001°)
1.25314117494143e-001	(7.57523142292981e+000dB,9.35568769103763e+001°)
1.25458473785801e-001	(7.56526987340241e+000dB,9.35527941361217e+001°)
1.25602996369489e-001	(7.55530823578066e+000dB,9.35487160228590e+001°)
1.25747685436767e-001	(7.54534651026559e+000dB,9.35446425653479e+001°)
1.25892541179418e-001	(7.53538469705782e+000dB,9.35405737583538e+001°)
1.26037563789444e-001	(7.52542279635737e+000dB,9.35365095966479e+001°)
1.26182753459069e-001	(7.51546080836417e+000dB,9.35324500750067e+001°)
1.26328110380737e-001	(7.50549873327729e+000dB,9.35283951882123e+001°)
1.26473634747117e-001	(7.49553657129557e+000dB,9.35243449310526e+001°)
1.26619326751096e-001	(7.48557432261735e+000dB,9.35202992983210e+001°)
1.26765186585786e-001	(7.47561198744056e+000dB,9.35162582848163e+001°)
1.26911214444521e-001	(7.46564956596260e+000dB,9.35122218853431e+001°)
1.27057410520856e-001	(7.45568705838044e+000dB,9.35081900947116e+001°)
1.27203775008571e-001	(7.44572446489072e+000dB,9.35041629077372e+001°)
1.27350308101668e-001	(7.43576178568951e+000dB,9.35001403192413e+001°)
1.27497009994373e-001	(7.42579902097239e+000dB,9.34961223240504e+001°)
1.27643880881136e-001	(7.41583617093465e+000dB,9.34921089169971e+001°)
1.27790920956630e-001	(7.40587323577106e+000dB,9.34881000929190e+001°)
1.27938130415754e-001	(7.39591021567600e+000dB,9.34840958466596e+001°)
1.28085509453630e-001	(7.38594711084320e+000dB,9.34800961730677e+001°)
1.28233058265604e-001	(7.37598392146638e+000dB,9.34761010669978e+001°)
1.28380777047249e-001	(7.36602064773835e+000dB,9.34721105233098e+001°)
1.28528665994363e-001	(7.35605728985177e+000dB,9.34681245368692e+001°)
1.28676725302969e-001	(7.34609384799872e+000dB,9.34641431025469e+001°)
1.28824955169315e-001	(7.33613032237094e+000dB,9.34601662152194e+001°)
1.28973355789877e-001	(7.32616671315976e+000dB,9.34561938697687e+001°)
1.29121927361355e-001	(7.31620302055594e+000dB,9.34522260610823e+001°)
1.29270670080678e-001	(7.30623924474990e+000dB,9.34482627840531e+001°)
1.29419584145000e-001	(7.29627538593159e+000dB,9.34443040335796e+001°)
1.29568669751704e-001	(7.28631144429069e+000dB,9.34403498045657e+001°)
1.29717927098397e-001	(7.27634742001620e+000dB,9.34364000919208e+001°)
1.29867356382918e-001	(7.26638331329671e+000dB,9.34324548905598e+001°)
1.30016957803331e-001	(7.25641912432081e+000dB,9.34285141954030e+001°)
1.30166731557928e-001	(7.24645485327587e+000dB,9.34245780013763e+001°)
1.30316677845232e-001	(7.23649050034964e+000dB,9.34206463034108e+001°)
1.30466796863991e-001	(7.22652606572903e+000dB,9.34167190964433e+001°)
1.30617088813186e-001	(7.21656154960054e+000dB,9.34127963754160e+001°)
1.30767553892024e-001	(7.20659695215044e+000dB,9.34088781352764e+001°)
1.30918192299943e-001	(7.19663227356425e+000dB,9.34049643709775e+001°)
1.31069004236610e-001	(7.18666751402728e+000dB,9.34010550774780e+001°)
1.31219989901922e-001	(7.17670267372454e+000dB,9.33971502497415e+001°)
1.31371149496008e-001	(7.16673775284035e+000dB,9.33932498827375e+001°)
1.31522483219226e-001	(7.15677275155885e+000dB,9.33893539714406e+001°)
1.31673991272164e-001	(7.14680767006363e+000dB,9.33854625108310e+001°)
1.31825673855643e-001	(7.13684250853782e+000dB,9.33815754958942e+001°)
1.31977531170713e-001	(7.12687726716433e+000dB,9.33776929216212e+001°)
1.32129563418659e-001	(7.11691194612536e+000dB,9.33738147830083e+001°)
1.32281770800995e-001	(7.10694654560296e+000dB,9.33699410750573e+001°)
1.32434153519468e-001	(7.09698106577872e+000dB,9.33660717927752e+001°)
1.32586711776058e-001	(7.08701550683365e+000dB,9.33622069311746e+001°)
1.32739445772976e-001	(7.07704986894855e+000dB,9.33583464852733e+001°)
1.32892355712668e-001	(7.06708415230380e+000dB,9.33544904500946e+001°)
1.33045441797811e-001	(7.05711835707916e+000dB,9.33506388206670e+001°)
1.33198704231318e-001	(7.04715248345422e+000dB,9.33467915920247e+001°)
1.33352143216334e-001	(7.03718653160811e+000dB,9.33429487592067e+001°)
1.33505758956239e-001	(7.02722050171924e+000dB,9.33391103172580e+001°)
1.33659551654646e-001	(7.01725439396621e+000dB,9.33352762612284e+001°)
1.33813521515404e-001	(7.00728820852669e+000dB,9.33314465861734e+001°)
1.33967668742596e-001	(6.99732194557830e+000dB,9.33276212871537e+001°)
1.34121993540539e-001	(6.98735560529794e+000dB,9.33238003592352e+001°)
1.34276496113788e-001	(6.97738918786242e+000dB,9.33199837974894e+001°)
1.34431176667133e-001	(6.96742269344789e+000dB,9.33161715969930e+001°)
1.34586035405597e-001	(6.95745612223027e+000dB,9.33123637528279e+001°)
1.34741072534443e-001	(6.94748947438501e+000dB,9.33085602600815e+001°)
1.34896288259168e-001	(6.93752275008716e+000dB,9.33047611138463e+001°)
1.35051682785506e-001	(6.92755594951144e+000dB,9.33009663092204e+001°)
1.35207256319430e-001	(6.91758907283205e+000dB,9.32971758413068e+001°)
1.35363009067148e-001	(6.90762212022293e+000dB,9.32933897052142e+001°)
1.35518941235106e-001	(6.89765509185746e+000dB,9.32896078960564e+001°)
1.35675053029988e-001	(6.88768798790886e+000dB,9.32858304089524e+001°)
1.35831344658718e-001	(6.87772080854976e+000dB,9.32820572390265e+001°)
1.35987816328454e-001	(6.86775355395240e+000dB,9.32782883814085e+001°)
1.36144468246597e-001	(6.85778622428873e+000dB,9.32745238312331e+001°)
1.36301300620785e-001	(6.84781881973039e+000dB,9.32707635836406e+001°)
1.36458313658895e-001	(6.83785134044837e+000dB,9.32670076337764e+001°)
1.36615507569043e-001	(6.82788378661345e+000dB,9.32632559767912e+001°)
1.36772882559587e-001	(6.81791615839601e+000dB,9.32595086078409e+001°)
1.36930438839123e-001	(6.80794845596598e+000dB,9.32557655220865e+001°)
1.37088176616488e-001	(6.79798067949298e+000dB,9.32520267146947e+001°)
1.37246096100759e-001	(6.78801282914616e+000dB,9.32482921808369e+001°)
1.37404197501254e-001	(6.77804490509439e+000dB,9.32445619156901e+001°)
1.37562481027533e-001	(6.76807690750611e+000dB,9.32408359144363e+001°)
1.37720946889397e-001	(6.75810883654929e+000dB,9.32371141722628e+001°)
1.37879595296888e-001	(6.74814069239170e+000dB,9.32333966843622e+001°)
1.38038426460291e-001	(6.73817247520044e+000dB,9.32296834459322e+001°)
