Freq.	V(feedb)/V(inv)
1.00000000000000e-001	(2.18924244695363e+000dB,9.44418738450420e+001°)
1.00115195553817e-001	(2.17930236910387e+000dB,9.44367830748996e+001°)
1.00230523807790e-001	(2.16936214888720e+000dB,9.44316980900576e+001°)
1.00345984914784e-001	(2.15942178711239e+000dB,9.44266188863956e+001°)
1.00461579027840e-001	(2.14948129090083e+000dB,9.44215454599360e+001°)
1.00577306300174e-001	(2.13954065783335e+000dB,9.44164778044970e+001°)
1.00693166885180e-001	(2.12959989482841e+000dB,9.44114159033188e+001°)
1.00809160936430e-001	(2.11965899315926e+000dB,9.44063597614177e+001°)
1.00925288607668e-001	(2.10971795966267e+000dB,9.44013093609170e+001°)
1.01041550052821e-001	(2.09977678871513e+000dB,9.43962647132779e+001°)
1.01157945425990e-001	(2.08983548070845e+000dB,9.43912257988208e+001°)
1.01274474881453e-001	(2.07989403613072e+000dB,9.43861926129604e+001°)
1.01391138573668e-001	(2.06995247129939e+000dB,9.43811651425427e+001°)
1.01507936657269e-001	(2.06001076768406e+000dB,9.43761434007202e+001°)
1.01624869287070e-001	(2.05006892229869e+000dB,9.43711273711050e+001°)
1.01741936618061e-001	(2.04012694493560e+000dB,9.43661170381738e+001°)
1.01859138805412e-001	(2.03018483921253e+000dB,9.43611124074763e+001°)
1.01976476004472e-001	(2.02024260520792e+000dB,9.43561134593323e+001°)
1.02093948370768e-001	(2.01030022087430e+000dB,9.43511202124003e+001°)
1.02211556060007e-001	(2.00035771818939e+000dB,9.43461326351053e+001°)
1.02329299228076e-001	(1.99041509093315e+000dB,9.43411507291023e+001°)
1.02447178031038e-001	(1.98047232949900e+000dB,9.43361744891888e+001°)
1.02565192625141e-001	(1.97052942745983e+000dB,9.43312039132982e+001°)
1.02683343166809e-001	(1.96058639765865e+000dB,9.43262389931707e+001°)
1.02801629812648e-001	(1.95064324635440e+000dB,9.43212797112827e+001°)
1.02920052719443e-001	(1.94069995743049e+000dB,9.43163260793922e+001°)
1.03038612044162e-001	(1.93075654350144e+000dB,9.43113780756693e+001°)
1.03157307943951e-001	(1.92081299800098e+000dB,9.43064357073316e+001°)
1.03276140576140e-001	(1.91086931733248e+000dB,9.43014989621502e+001°)
1.03395110098237e-001	(1.90092551408234e+000dB,9.42965678259719e+001°)
1.03514216667935e-001	(1.89098157822990e+000dB,9.42916422993522e+001°)
1.03633460443104e-001	(1.88103751592894e+000dB,9.42867223823219e+001°)
1.03752841581801e-001	(1.87109332667213e+000dB,9.42818080628825e+001°)
1.03872360242262e-001	(1.86114900995505e+000dB,9.42768993338400e+001°)
1.03992016582906e-001	(1.85120456200832e+000dB,9.42719961930956e+001°)
1.04111810762334e-001	(1.84125999521421e+000dB,9.42670986232693e+001°)
1.04231742939331e-001	(1.83131529921276e+000dB,9.42622066270925e+001°)
1.04351813272863e-001	(1.82137047661841e+000dB,9.42573202003555e+001°)
1.04472021922080e-001	(1.81142552505802e+000dB,9.42524393366891e+001°)
1.04592369046317e-001	(1.80148044859823e+000dB,9.42475640219182e+001°)
1.04712854805090e-001	(1.79153524481657e+000dB,9.42426942553434e+001°)
1.04833479358100e-001	(1.78158991785837e+000dB,9.42378300352501e+001°)
1.04954242865233e-001	(1.77164446667913e+000dB,9.42329713442005e+001°)
1.05075145486555e-001	(1.76169888882975e+000dB,9.42281181907711e+001°)
1.05196187382323e-001	(1.75175318806368e+000dB,9.42232705513131e+001°)
1.05317368712972e-001	(1.74180735688133e+000dB,9.42184284371348e+001°)
1.05438689639126e-001	(1.73186140727721e+000dB,9.42135918262818e+001°)
1.05560150321593e-001	(1.72191533659190e+000dB,9.42087607266390e+001°)
1.05681750921366e-001	(1.71196913691532e+000dB,9.42039351261815e+001°)
1.05803491599623e-001	(1.70202281853342e+000dB,9.41991150089471e+001°)
1.05925372517729e-001	(1.69207637037398e+000dB,9.41943003880244e+001°)
1.06047393837234e-001	(1.68212981430342e+000dB,9.41894912435357e+001°)
1.06169555719873e-001	(1.67218312726698e+000dB,9.41846875739990e+001°)
1.06291858327569e-001	(1.66223631282638e+000dB,9.41798893727691e+001°)
1.06414301822432e-001	(1.65228938284358e+000dB,9.41750966314163e+001°)
1.06536886366757e-001	(1.64234233246811e+000dB,9.41703093449012e+001°)
1.06659612123026e-001	(1.63239515514580e+000dB,9.41655275139700e+001°)
1.06782479253910e-001	(1.62244785921543e+000dB,9.41607511247363e+001°)
1.06905487922266e-001	(1.61250044638255e+000dB,9.41559801728916e+001°)
1.07028638291139e-001	(1.60255291489972e+000dB,9.41512146483077e+001°)
1.07151930523761e-001	(1.59260525972097e+000dB,9.41464545557630e+001°)
1.07275364783553e-001	(1.58265748394376e+000dB,9.41416998775182e+001°)
1.07398941234125e-001	(1.57270958747832e+000dB,9.41369506176879e+001°)
1.07522660039273e-001	(1.56276157166198e+000dB,9.41322067596589e+001°)
1.07646521362984e-001	(1.55281343972666e+000dB,9.41274683090950e+001°)
1.07770525369433e-001	(1.54286518615811e+000dB,9.41227352515431e+001°)
1.07894672222983e-001	(1.53291681402820e+000dB,9.41180075860891e+001°)
1.08018962088189e-001	(1.52296832790361e+000dB,9.41132852979659e+001°)
1.08143395129794e-001	(1.51301973589680e+000dB,9.41085683870203e+001°)
1.08267971512730e-001	(1.50307100688765e+000dB,9.41038568515093e+001°)
1.08392691402121e-001	(1.49312215896932e+000dB,9.40991506826452e+001°)
1.08517554963279e-001	(1.48317320006217e+000dB,9.40944498745658e+001°)
1.08642562361707e-001	(1.47322412772833e+000dB,9.40897544144987e+001°)
1.08767713763100e-001	(1.46327493961637e+000dB,9.40850643031735e+001°)
1.08893009333344e-001	(1.45332562470424e+000dB,9.40803795378102e+001°)
1.09018449238513e-001	(1.44337620434079e+000dB,9.40757001026664e+001°)
1.09144033644876e-001	(1.43342666405168e+000dB,9.40710260011697e+001°)
1.09269762718891e-001	(1.42347700972113e+000dB,9.40663572209632e+001°)
1.09395636627210e-001	(1.41352723694852e+000dB,9.40616937582189e+001°)
1.09521655536674e-001	(1.40357735681278e+000dB,9.40570356098608e+001°)
1.09647819614319e-001	(1.39362735271399e+000dB,9.40523827681844e+001°)
1.09774129027372e-001	(1.38367724422841e+000dB,9.40477352250886e+001°)
1.09900583943253e-001	(1.37372701634520e+000dB,9.40430929724326e+001°)
1.10027184529574e-001	(1.36377667135268e+000dB,9.40384560091320e+001°)
1.10153930954142e-001	(1.35382621668440e+000dB,9.40338243326340e+001°)
1.10280823384956e-001	(1.34387564744062e+000dB,9.40291979270043e+001°)
1.10407861990208e-001	(1.33392496232287e+000dB,9.40245767926834e+001°)
1.10535046938285e-001	(1.32397417037234e+000dB,9.40199609262403e+001°)
1.10662378397767e-001	(1.31402325960168e+000dB,9.40153503148144e+001°)
1.10789856537429e-001	(1.30407224076250e+000dB,9.40107449588775e+001°)
1.10917481526241e-001	(1.29412110526542e+000dB,9.40061448486484e+001°)
1.11045253533365e-001	(1.28416986721542e+000dB,9.40015499791482e+001°)
1.11173172728160e-001	(1.27421850571626e+000dB,9.39969603451844e+001°)
1.11301239280180e-001	(1.26426703479259e+000dB,9.39923759422168e+001°)
1.11429453359174e-001	(1.25431546317831e+000dB,9.39877967618859e+001°)
1.11557815135086e-001	(1.24436377853902e+000dB,9.39832227992051e+001°)
1.11686324778057e-001	(1.23441197894947e+000dB,9.39786540438442e+001°)
1.11814982458423e-001	(1.22446006081802e+000dB,9.39740905016413e+001°)
1.11943788346716e-001	(1.21450804491927e+000dB,9.39695321537180e+001°)
1.12072742613665e-001	(1.20455591879370e+000dB,9.39649790075194e+001°)
1.12201845430197e-001	(1.19460367141669e+000dB,9.39604310460245e+001°)
1.12331096967433e-001	(1.18465133067137e+000dB,9.39558882630000e+001°)
1.12460497396693e-001	(1.17469887677581e+000dB,9.39513506603713e+001°)
1.12590046889495e-001	(1.16474629685181e+000dB,9.39468182334364e+001°)
1.12719745617552e-001	(1.15479362926621e+000dB,9.39422909653373e+001°)
1.12849593752777e-001	(1.14484084161513e+000dB,9.39377688606588e+001°)
1.12979591467281e-001	(1.13488794743461e+000dB,9.39332519098888e+001°)
1.13109738933371e-001	(1.12493495137880e+000dB,9.39287401055819e+001°)
1.13240036323556e-001	(1.11498184567539e+000dB,9.39242334483448e+001°)
1.13370483810542e-001	(1.10502863117510e+000dB,9.39197319181714e+001°)
1.13501081567232e-001	(1.09507530902685e+000dB,9.39152355282273e+001°)
1.13631829766732e-001	(1.08512188358421e+000dB,9.39107442603001e+001°)
1.13762728582344e-001	(1.07516834322679e+000dB,9.39062581131503e+001°)
1.13893778187571e-001	(1.06521471014321e+000dB,9.39017770712556e+001°)
1.14024978756118e-001	(1.05526096199323e+000dB,9.38973011460412e+001°)
1.14156330461885e-001	(1.04530709939588e+000dB,9.38928303254949e+001°)
1.14287833478978e-001	(1.03535313906626e+000dB,9.38883645965018e+001°)
1.14419487981699e-001	(1.02539908705562e+000dB,9.38839039524908e+001°)
1.14551294144554e-001	(1.01544491166934e+000dB,9.38794484040091e+001°)
1.14683252142249e-001	(1.00549064025345e+000dB,9.38749979272145e+001°)
1.14815362149689e-001	(9.95536260740759e-001dB,9.38705525265384e+001°)
1.14947624341984e-001	(9.85581777153762e-001dB,9.38661121964887e+001°)
1.15080038894444e-001	(9.75627186202624e-001dB,9.38616769290994e+001°)
1.15212605982582e-001	(9.65672495446866e-001dB,9.38572467207565e+001°)
1.15345325782110e-001	(9.55717705073392e-001dB,9.38528215571798e+001°)
1.15478198468947e-001	(9.45762804468661e-001dB,9.38484014388240e+001°)
1.15611224219211e-001	(9.35807799222842e-001dB,9.38439863629167e+001°)
1.15744403209225e-001	(9.25852696729781e-001dB,9.38395763231762e+001°)
1.15877735615513e-001	(9.15897489702334e-001dB,9.38351713087886e+001°)
1.16011221614806e-001	(9.05942176381809e-001dB,9.38307713202464e+001°)
1.16144861384035e-001	(8.95986769416518e-001dB,9.38263763459040e+001°)
1.16278655100336e-001	(8.86031248676001e-001dB,9.38219863865794e+001°)
1.16412602941050e-001	(8.76075634018699e-001dB,9.38176014271850e+001°)
1.16546705083721e-001	(8.66119914399715e-001dB,9.38132214770902e+001°)
1.16680961706097e-001	(8.56164091282845e-001dB,9.38088465192525e+001°)
1.16815372986133e-001	(8.46208173502259e-001dB,9.38044765457143e+001°)
1.16949939101988e-001	(8.36252153416704e-001dB,9.38001115567794e+001°)
1.17084660232025e-001	(8.26296034294356e-001dB,9.37957515482196e+001°)
1.17219536554814e-001	(8.16339802762665e-001dB,9.37913965149906e+001°)
1.17354568249130e-001	(8.06383480313252e-001dB,9.37870464408350e+001°)
1.17489755493954e-001	(7.96427064670121e-001dB,9.37827013323507e+001°)
1.17625098468473e-001	(7.86470533024975e-001dB,9.37783611847810e+001°)
1.17760597352082e-001	(7.76513914196408e-001dB,9.37740259832970e+001°)
1.17896252324380e-001	(7.66557194526770e-001dB,9.37696957242190e+001°)
1.18032063565174e-001	(7.56600365837900e-001dB,9.37653704078233e+001°)
1.18168031254479e-001	(7.46643449491525e-001dB,9.37610500218337e+001°)
1.18304155572518e-001	(7.36686431646294e-001dB,9.37567345634139e+001°)
1.18440436699718e-001	(7.26729316964107e-001dB,9.37524240311526e+001°)
1.18576874816717e-001	(7.16772098793944e-001dB,9.37481184142178e+001°)
1.18713470104361e-001	(7.06814783554526e-001dB,9.37438177086808e+001°)
1.18850222743703e-001	(6.96857373875110e-001dB,9.37395219102268e+001°)
1.18987132916005e-001	(6.86899870449441e-001dB,9.37352310110355e+001°)
1.19124200802739e-001	(6.76942260862545e-001dB,9.37309450084231e+001°)
1.19261426585583e-001	(6.66984553162561e-001dB,9.37266638942388e+001°)
1.19398810446428e-001	(6.57026759160635e-001dB,9.37223876628841e+001°)
1.19536352567373e-001	(6.47068860611082e-001dB,9.37181163118895e+001°)
1.19674053130725e-001	(6.37110869185567e-001dB,9.37138498316280e+001°)
1.19811912319005e-001	(6.27152777842435e-001dB,9.37095882254520e+001°)
1.19949930314939e-001	(6.17194590520302e-001dB,9.37053314728515e+001°)
1.20088107301468e-001	(6.07236309518432e-001dB,9.37010795799650e+001°)
1.20226443461742e-001	(5.97277935049299e-001dB,9.36968325393395e+001°)
1.20364938979123e-001	(5.87319465398375e-001dB,9.36925903438450e+001°)
1.20503594037181e-001	(5.77360893136994e-001dB,9.36883529921719e+001°)
1.20642408819701e-001	(5.67402233423844e-001dB,9.36841204705712e+001°)
1.20781383510679e-001	(5.57443473073366e-001dB,9.36798927815427e+001°)
1.20920518294322e-001	(5.47484623390825e-001dB,9.36756699143455e+001°)
1.21059813355049e-001	(5.37525684341967e-001dB,9.36714518680607e+001°)
1.21199268877494e-001	(5.27566642447994e-001dB,9.36672386351980e+001°)
1.21338885046499e-001	(5.17607507053102e-001dB,9.36630302122383e+001°)
1.21478662047124e-001	(5.07648283540790e-001dB,9.36588265858412e+001°)
1.21618600064638e-001	(4.97688964048311e-001dB,9.36546277572234e+001°)
1.21758699284527e-001	(4.87729552053221e-001dB,9.36504337239062e+001°)
1.21898959892488e-001	(4.77770043295818e-001dB,9.36462444775147e+001°)
1.22039382074433e-001	(4.67810441101461e-001dB,9.36420600099171e+001°)
1.22179966016488e-001	(4.57850756488637e-001dB,9.36378803164035e+001°)
1.22320711904994e-001	(4.47890969703653e-001dB,9.36337053959790e+001°)
1.22461619926506e-001	(4.37931089694982e-001dB,9.36295352406607e+001°)
1.22602690267794e-001	(4.27971119603546e-001dB,9.36253698428326e+001°)
1.22743923115842e-001	(4.18011064506227e-001dB,9.36212091999532e+001°)
1.22885318657852e-001	(4.08050910124014e-001dB,9.36170533091318e+001°)
1.23026877081240e-001	(3.98090672913554e-001dB,9.36129021549475e+001°)
1.23168598573637e-001	(3.88130336589325e-001dB,9.36087557447030e+001°)
1.23310483322892e-001	(3.78169919471110e-001dB,9.36046140628470e+001°)
1.23452531517070e-001	(3.68209401232177e-001dB,9.36004771126063e+001°)
1.23594743344452e-001	(3.58248792377567e-001dB,9.35963448839006e+001°)
1.23737118993537e-001	(3.48288097612836e-001dB,9.35922173701964e+001°)
1.23879658653038e-001	(3.38327313812010e-001dB,9.35880945669166e+001°)
1.24022362511890e-001	(3.28366437837504e-001dB,9.35839764738309e+001°)
1.24165230759243e-001	(3.18405472232149e-001dB,9.35798630806398e+001°)
1.24308263584464e-001	(3.08444415654899e-001dB,9.35757543837964e+001°)
1.24451461177140e-001	(2.98483274506802e-001dB,9.35716503768943e+001°)
1.24594823727076e-001	(2.88522039503019e-001dB,9.35675510546721e+001°)
1.24738351424296e-001	(2.78560718915062e-001dB,9.35634564130331e+001°)
1.24882044459041e-001	(2.68599309181033e-001dB,9.35593664441958e+001°)
1.25025903021773e-001	(2.58637808693741e-001dB,9.35552811463725e+001°)
1.25169927303174e-001	(2.48676219647764e-001dB,9.35512005100672e+001°)
1.25314117494143e-001	(2.38714550150582e-001dB,9.35471245334310e+001°)
1.25458473785801e-001	(2.28752784659177e-001dB,9.35430532157224e+001°)
1.25602996369489e-001	(2.18790937004722e-001dB,9.35389865428824e+001°)
1.25747685436767e-001	(2.08828995432572e-001dB,9.35349245148858e+001°)
1.25892541179418e-001	(1.98866969777839e-001dB,9.35308671224246e+001°)
1.26037563789444e-001	(1.88904858019106e-001dB,9.35268143629994e+001°)
1.26182753459069e-001	(1.78942656108117e-001dB,9.35227662344719e+001°)
1.26328110380737e-001	(1.68980375712105e-001dB,9.35187227229386e+001°)
1.26473634747117e-001	(1.59018002800968e-001dB,9.35146838342720e+001°)
1.26619326751096e-001	(1.49055548909584e-001dB,9.35106495512102e+001°)
1.26765186585786e-001	(1.39092997874114e-001dB,9.35066198811726e+001°)
1.26911214444521e-001	(1.29130375116293e-001dB,9.35025948085559e+001°)
1.27057410520856e-001	(1.19167652347860e-001dB,9.34985743381674e+001°)
1.27203775008571e-001	(1.09204854888930e-001dB,9.34945584518580e+001°)
1.27350308101668e-001	(9.92419663109113e-002dB,9.34905471569315e+001°)
1.27497009994373e-001	(8.92789999017427e-002dB,9.34865404375190e+001°)
1.27643880881136e-001	(7.93159390625690e-002dB,9.34825383008704e+001°)
1.27790920956630e-001	(6.93528010203236e-002dB,9.34785407310841e+001°)
1.27938130415754e-001	(5.93895749392237e-002dB,9.34745477238634e+001°)
1.28085509453630e-001	(4.94262620690857e-002dB,9.34705592837008e+001°)
1.28233058265604e-001	(3.94628694664640e-002dB,9.34665753957125e+001°)
1.28380777047249e-001	(2.94993881135119e-002dB,9.34625960551100e+001°)
1.28528665994363e-001	(1.95358291440795e-002dB,9.34586212635632e+001°)
1.28676725302969e-001	(9.57219143866139e-003dB,9.34546510080480e+001°)
1.28824955169315e-001	(-3.91536214725874e-004dB,9.34506852890614e+001°)
1.28973355789877e-001	(-1.03553509545139e-002dB,9.34467241027095e+001°)
1.29121927361355e-001	(-2.03192439443522e-002dB,9.34427674389217e+001°)
1.29270670080678e-001	(-3.02832185189872e-002dB,9.34388152928328e+001°)
1.29419584145000e-001	(-4.02472780726446e-002dB,9.34348676591316e+001°)
1.29568669751704e-001	(-5.02114239646199e-002dB,9.34309245421389e+001°)
1.29717927098397e-001	(-6.01756455954931e-002dB,9.34269859233595e+001°)
1.29867356382918e-001	(-7.01399505008948e-002dB,9.34230518078235e+001°)
1.30016957803331e-001	(-8.01043403652325e-002dB,9.34191221826266e+001°)
1.30166731557928e-001	(-9.00688126956063e-002dB,9.34151970504407e+001°)
1.30316677845232e-001	(-1.00033359054328e-001dB,9.34112763985026e+001°)
1.30466796863991e-001	(-1.09997989359980e-001dB,9.34073602267180e+001°)
1.30617088813186e-001	(-1.19962709551356e-001dB,9.34034485295797e+001°)
1.30767553892024e-001	(-1.29927498995150e-001dB,9.33995412991403e+001°)
1.30918192299943e-001	(-1.39892373969588e-001dB,9.33956385347276e+001°)
1.31069004236610e-001	(-1.49857328283102e-001dB,9.33917402297789e+001°)
1.31219989901922e-001	(-1.59822364024539e-001dB,9.33878463754256e+001°)
1.31371149496008e-001	(-1.69787479173696e-001dB,9.33839569734685e+001°)
1.31522483219226e-001	(-1.79752682162675e-001dB,9.33800720123293e+001°)
1.31673991272164e-001	(-1.89717958687451e-001dB,9.33761914923858e+001°)
1.31825673855643e-001	(-1.99683306948266e-001dB,9.33723154031202e+001°)
1.31977531170713e-001	(-2.09648739617603e-001dB,9.33684437434441e+001°)
1.32129563418659e-001	(-2.19614252916740e-001dB,9.33645765096762e+001°)
1.32281770800995e-001	(-2.29579853505001e-001dB,9.33607136966033e+001°)
1.32434153519468e-001	(-2.39545516998080e-001dB,9.33568552899458e+001°)
1.32586711776058e-001	(-2.49511266706152e-001dB,9.33530012951753e+001°)
1.32739445772976e-001	(-2.59477096987169e-001dB,9.33491517069552e+001°)
1.32892355712668e-001	(-2.69443006438217e-001dB,9.33453065168405e+001°)
1.33045441797811e-001	(-2.79408989509623e-001dB,9.33414657203538e+001°)
1.33198704231318e-001	(-2.89375051155121e-001dB,9.33376293097313e+001°)
1.33352143216334e-001	(-2.99341185882383e-001dB,9.33337972848054e+001°)
1.33505758956239e-001	(-3.09307409225873e-001dB,9.33299696418287e+001°)
1.33659551654646e-001	(-3.19273707510502e-001dB,9.33261463722706e+001°)
1.33813521515404e-001	(-3.29240077540888e-001dB,9.33223274686022e+001°)
1.33967668742596e-001	(-3.39206528719158e-001dB,9.33185129337378e+001°)
1.34121993540539e-001	(-3.49173055947528e-001dB,9.33147027524327e+001°)
1.34276496113788e-001	(-3.59139660315631e-001dB,9.33108969304720e+001°)
1.34431176667133e-001	(-3.69106341020570e-001dB,9.33070954542209e+001°)
1.34586035405597e-001	(-3.79073095100212e-001dB,9.33032983235593e+001°)
1.34741072534443e-001	(-3.89039923884890e-001dB,9.32995055360937e+001°)
1.34896288259168e-001	(-3.99006837329050e-001dB,9.32957170800264e+001°)
1.35051682785506e-001	(-4.08973817798827e-001dB,9.32919329553335e+001°)
1.35207256319430e-001	(-4.18940881696604e-001dB,9.32881531552511e+001°)
1.35363009067148e-001	(-4.28908017872762e-001dB,9.32843776752345e+001°)
1.35518941235106e-001	(-4.38875230131298e-001dB,9.32806065107053e+001°)
1.35675053029988e-001	(-4.48842522300594e-001dB,9.32768396584109e+001°)
1.35831344658718e-001	(-4.58809879141017e-001dB,9.32730771092063e+001°)
1.35987816328454e-001	(-4.68777317376831e-001dB,9.32693188629414e+001°)
1.36144468246597e-001	(-4.78744821867116e-001dB,9.32655649105115e+001°)
1.36301300620785e-001	(-4.88712407355925e-001dB,9.32618152509986e+001°)
1.36458313658895e-001	(-4.98680067359071e-001dB,9.32580698741460e+001°)
1.36615507569043e-001	(-5.08647808203959e-001dB,9.32543287837909e+001°)
1.36772882559587e-001	(-5.18615612787057e-001dB,9.32505919648279e+001°)
1.36930438839123e-001	(-5.28583491840988e-001dB,9.32468594183470e+001°)
1.37088176616488e-001	(-5.38551449776147e-001dB,9.32431311435053e+001°)
1.37246096100759e-001	(-5.48519473935239e-001dB,9.32394071246495e+001°)
1.37404197501254e-001	(-5.58487581705808e-001dB,9.32356873675753e+001°)
1.37562481027533e-001	(-5.68455749716032e-001dB,9.32319718579805e+001°)
1.37720946889397e-001	(-5.78424004175650e-001dB,9.32282606013912e+001°)
1.37879595296888e-001	(-5.88392328262222e-001dB,9.32245535868609e+001°)
