Freq.	V(feedb)/V(inv)
1.00000000000000e-001	(1.09450161483000e+001dB,9.44560274284698e+001°)
1.00115195553817e-001	(1.09350764518827e+001dB,9.44509203208569e+001°)
1.00230523807790e-001	(1.09251366143479e+001dB,9.44458190181371e+001°)
1.00345984914784e-001	(1.09151966464486e+001dB,9.44407235122651e+001°)
1.00461579027840e-001	(1.09052565290357e+001dB,9.44356338016849e+001°)
1.00577306300174e-001	(1.08953162725655e+001dB,9.44305498751479e+001°)
1.00693166885180e-001	(1.08853758900450e+001dB,9.44254717298164e+001°)
1.00809160936430e-001	(1.08754353692774e+001dB,9.44203993565461e+001°)
1.00925288607668e-001	(1.08654947079919e+001dB,9.44153327487243e+001°)
1.01041550052821e-001	(1.08555539137986e+001dB,9.44102719023174e+001°)
1.01157945425990e-001	(1.08456129891881e+001dB,9.44052168080846e+001°)
1.01274474881453e-001	(1.08356719239797e+001dB,9.44001674625643e+001°)
1.01391138573668e-001	(1.08257307229271e+001dB,9.43951238613350e+001°)
1.01507936657269e-001	(1.08157893931247e+001dB,9.43900859909331e+001°)
1.01624869287070e-001	(1.08058479214948e+001dB,9.43850538485187e+001°)
1.01741936618061e-001	(1.07959063275330e+001dB,9.43800274245403e+001°)
1.01859138805412e-001	(1.07859645878761e+001dB,9.43750067232547e+001°)
1.01976476004472e-001	(1.07760227217147e+001dB,9.43699917288583e+001°)
1.02093948370768e-001	(1.07660807229973e+001dB,9.43649824356250e+001°)
1.02211556060007e-001	(1.07561385779575e+001dB,9.43599788421275e+001°)
1.02329299228076e-001	(1.07461963131621e+001dB,9.43549809385811e+001°)
1.02447178031038e-001	(1.07362539221144e+001dB,9.43499887134840e+001°)
1.02565192625141e-001	(1.07263113881505e+001dB,9.43450021713318e+001°)
1.02683343166809e-001	(1.07163687298418e+001dB,9.43400212962352e+001°)
1.02801629812648e-001	(1.07064259429789e+001dB,9.43350460884400e+001°)
1.02920052719443e-001	(1.06964830128888e+001dB,9.43300765422874e+001°)
1.03038612044162e-001	(1.06865399604072e+001dB,9.43251126432341e+001°)
1.03157307943951e-001	(1.06765967758175e+001dB,9.43201543935681e+001°)
1.03276140576140e-001	(1.06666534644252e+001dB,9.43152017822020e+001°)
1.03395110098237e-001	(1.06567100213081e+001dB,9.43102548047114e+001°)
1.03514216667935e-001	(1.06467664464516e+001dB,9.43053134557289e+001°)
1.03633460443104e-001	(1.06368227397279e+001dB,9.43003777272734e+001°)
1.03752841581801e-001	(1.06268789137340e+001dB,9.42954476118998e+001°)
1.03872360242262e-001	(1.06169349501463e+001dB,9.42905231074019e+001°)
1.03992016582906e-001	(1.06069908613114e+001dB,9.42856042064053e+001°)
1.04111810762334e-001	(1.05970466568795e+001dB,9.42806908959714e+001°)
1.04231742939331e-001	(1.05871023078069e+001dB,9.42757831817062e+001°)
1.04351813272863e-001	(1.05771578389234e+001dB,9.42708810463007e+001°)
1.04472021922080e-001	(1.05672132389331e+001dB,9.42659844876126e+001°)
1.04592369046317e-001	(1.05572685171172e+001dB,9.42610935077619e+001°)
1.04712854805090e-001	(1.05473236720287e+001dB,9.42562080804690e+001°)
1.04833479358100e-001	(1.05373786868682e+001dB,9.42513282217280e+001°)
1.04954242865233e-001	(1.05274335963647e+001dB,9.42464539110389e+001°)
1.05075145486555e-001	(1.05174883573343e+001dB,9.42415851537621e+001°)
1.05196187382323e-001	(1.05075430069028e+001dB,9.42367219303796e+001°)
1.05317368712972e-001	(1.04975975301979e+001dB,9.42318642431051e+001°)
1.05438689639126e-001	(1.04876519225230e+001dB,9.42270120843189e+001°)
1.05560150321593e-001	(1.04777061999503e+001dB,9.42221654443634e+001°)
1.05681750921366e-001	(1.04677603497968e+001dB,9.42173243271095e+001°)
1.05803491599623e-001	(1.04578143799094e+001dB,9.42124887096688e+001°)
1.05925372517729e-001	(1.04478682720753e+001dB,9.42076585996752e+001°)
1.06047393837234e-001	(1.04379220550532e+001dB,9.42028339901183e+001°)
1.06169555719873e-001	(1.04279757101685e+001dB,9.41980148683449e+001°)
1.06291858327569e-001	(1.04180292370768e+001dB,9.41932012328617e+001°)
1.06414301822432e-001	(1.04080826510720e+001dB,9.41883930752194e+001°)
1.06536886366757e-001	(1.03981359357197e+001dB,9.41835903920242e+001°)
1.06659612123026e-001	(1.03881890981477e+001dB,9.41787931755969e+001°)
1.06782479253910e-001	(1.03782421453670e+001dB,9.41740014178325e+001°)
1.06905487922266e-001	(1.03682950658256e+001dB,9.41692151180004e+001°)
1.07028638291139e-001	(1.03583478715231e+001dB,9.41644342613329e+001°)
1.07151930523761e-001	(1.03484005479980e+001dB,9.41596588551408e+001°)
1.07275364783553e-001	(1.03384531095671e+001dB,9.41548888738032e+001°)
1.07398941234125e-001	(1.03285055548914e+001dB,9.41501243327428e+001°)
1.07522660039273e-001	(1.03185578714497e+001dB,9.41453652116268e+001°)
1.07646521362984e-001	(1.03086100734338e+001dB,9.41406115076109e+001°)
1.07770525369433e-001	(1.02986621535555e+001dB,9.41358632210579e+001°)
1.07894672222983e-001	(1.02887141123433e+001dB,9.41311203382367e+001°)
1.08018962088189e-001	(1.02787659555025e+001dB,9.41263828512362e+001°)
1.08143395129794e-001	(1.02688176834363e+001dB,9.41216507630952e+001°)
1.08267971512730e-001	(1.02588692881792e+001dB,9.41169240593555e+001°)
1.08392691402121e-001	(1.02489207778091e+001dB,9.41122027384579e+001°)
1.08517554963279e-001	(1.02389721468934e+001dB,9.41074867970999e+001°)
1.08642562361707e-001	(1.02290233897083e+001dB,9.41027762260548e+001°)
1.08767713763100e-001	(1.02190745327820e+001dB,9.40980710126263e+001°)
1.08893009333344e-001	(1.02091255433423e+001dB,9.40933711628208e+001°)
1.09018449238513e-001	(1.01991764503175e+001dB,9.40886766619222e+001°)
1.09144033644876e-001	(1.01892272313284e+001dB,9.40839875078661e+001°)
1.09269762718891e-001	(1.01792779016790e+001dB,9.40793036948684e+001°)
1.09395636627210e-001	(1.01693284548812e+001dB,9.40746252180487e+001°)
1.09521655536674e-001	(1.01593788896771e+001dB,9.40699520662594e+001°)
1.09647819614319e-001	(1.01494292128882e+001dB,9.40652842375460e+001°)
1.09774129027372e-001	(1.01394794257748e+001dB,9.40606217276878e+001°)
1.09900583943253e-001	(1.01295295130424e+001dB,9.40559645262985e+001°)
1.10027184529574e-001	(1.01195794946950e+001dB,9.40513126262381e+001°)
1.10153930954142e-001	(1.01096293634649e+001dB,9.40466660271341e+001°)
1.10280823384956e-001	(1.00996791008816e+001dB,9.40420247243620e+001°)
1.10407861990208e-001	(1.00897287347809e+001dB,9.40373887081898e+001°)
1.10535046938285e-001	(1.00797782545802e+001dB,9.40327579683435e+001°)
1.10662378397767e-001	(1.00698276633827e+001dB,9.40281325047135e+001°)
1.10789856537429e-001	(1.00598769585043e+001dB,9.40235123092641e+001°)
1.10917481526241e-001	(1.00499261427520e+001dB,9.40188973789688e+001°)
1.11045253533365e-001	(1.00399752076702e+001dB,9.40142877053825e+001°)
1.11173172728160e-001	(1.00300241694893e+001dB,9.40096832829837e+001°)
1.11301239280180e-001	(1.00200730140219e+001dB,9.40050841063193e+001°)
1.11429453359174e-001	(1.00101217462114e+001dB,9.40004901697663e+001°)
1.11557815135086e-001	(1.00001703680771e+001dB,9.39959014663830e+001°)
1.11686324778057e-001	(9.99021888156438e+000dB,9.39913179911766e+001°)
1.11814982458423e-001	(9.98026728288951e+000dB,9.39867397356854e+001°)
1.11943788346716e-001	(9.97031556266071e+000dB,9.39821667027672e+001°)
1.12072742613665e-001	(9.96036374727640e+000dB,9.39775988773352e+001°)
1.12201845430197e-001	(9.95041181034784e+000dB,9.39730362578432e+001°)
1.12331096967433e-001	(9.94045977251913e+000dB,9.39684788333950e+001°)
1.12460497396693e-001	(9.93050761544715e+000dB,9.39639266060015e+001°)
1.12590046889495e-001	(9.92055535672930e+000dB,9.39593795620051e+001°)
1.12719745617552e-001	(9.91060298328243e+000dB,9.39548377037088e+001°)
1.12849593752777e-001	(9.90065050124876e+000dB,9.39503010173420e+001°)
1.12979591467281e-001	(9.89069791402953e+000dB,9.39457695027387e+001°)
1.13109738933371e-001	(9.88074522196971e+000dB,9.39412431515256e+001°)
1.13240036323556e-001	(9.87079241691247e+000dB,9.39367219599892e+001°)
1.13370483810542e-001	(9.86083949895345e+000dB,9.39322059226192e+001°)
1.13501081567232e-001	(9.85088647637343e+000dB,9.39276950274997e+001°)
1.13631829766732e-001	(9.84093334905606e+000dB,9.39231892743296e+001°)
1.13762728582344e-001	(9.83098011104930e+000dB,9.39186886604579e+001°)
1.13893778187571e-001	(9.82102676462645e+000dB,9.39141931733491e+001°)
1.14024978756118e-001	(9.81107331202959e+000dB,9.39097028117780e+001°)
1.14156330461885e-001	(9.80111976091653e+000dB,9.39052175647584e+001°)
1.14287833478978e-001	(9.79116609625612e+000dB,9.39007374311839e+001°)
1.14419487981699e-001	(9.78121233400308e+000dB,9.38962624026962e+001°)
1.14551294144554e-001	(9.77125845028998e+000dB,9.38917924803045e+001°)
1.14683252142249e-001	(9.76130447773890e+000dB,9.38873276510227e+001°)
1.14815362149689e-001	(9.75135038366620e+000dB,9.38828679121373e+001°)
1.14947624341984e-001	(9.74139619762470e+000dB,9.38784132514203e+001°)
1.15080038894444e-001	(9.73144190085375e+000dB,9.38739636744920e+001°)
1.15212605982582e-001	(9.72148750274825e+000dB,9.38695191669996e+001°)
1.15345325782110e-001	(9.71153299841475e+000dB,9.38650797288939e+001°)
1.15478198468947e-001	(9.70157838845371e+000dB,9.38606453526541e+001°)
1.15611224219211e-001	(9.69162367614471e+000dB,9.38562160257091e+001°)
1.15744403209225e-001	(9.68166885904659e+000dB,9.38517917542656e+001°)
1.15877735615513e-001	(9.67171394018761e+000dB,9.38473725252842e+001°)
1.16011221614806e-001	(9.66175891384450e+000dB,9.38429583339998e+001°)
1.16144861384035e-001	(9.65180378570071e+000dB,9.38385491786101e+001°)
1.16278655100336e-001	(9.64184856120883e+000dB,9.38341450488259e+001°)
1.16412602941050e-001	(9.63189322851011e+000dB,9.38297459417420e+001°)
1.16546705083721e-001	(9.62193778699402e+000dB,9.38253518503280e+001°)
1.16680961706097e-001	(9.61198225619233e+000dB,9.38209627667564e+001°)
1.16815372986133e-001	(9.60202661795051e+000dB,9.38165786888134e+001°)
1.16949939101988e-001	(9.59207087992408e+000dB,9.38121996085787e+001°)
1.17084660232025e-001	(9.58211503523643e+000dB,9.38078255242750e+001°)
1.17219536554814e-001	(9.57215910287335e+000dB,9.38034564248810e+001°)
1.17354568249130e-001	(9.56220305819232e+000dB,9.37990923098646e+001°)
1.17489755493954e-001	(9.55224691413812e+000dB,9.37947331751200e+001°)
1.17625098468473e-001	(9.54229067183628e+000dB,9.37903790070804e+001°)
1.17760597352082e-001	(9.53233432945871e+000dB,9.37860298052101e+001°)
1.17896252324380e-001	(9.52237788199178e+000dB,9.37816855628658e+001°)
1.18032063565174e-001	(9.51242134194237e+000dB,9.37773462800042e+001°)
1.18168031254479e-001	(9.50246469223084e+000dB,9.37730119402611e+001°)
1.18304155572518e-001	(9.49250794803019e+000dB,9.37686825491790e+001°)
1.18440436699718e-001	(9.48255110953788e+000dB,9.37643580883954e+001°)
1.18576874816717e-001	(9.47259416525825e+000dB,9.37600385661237e+001°)
1.18713470104361e-001	(9.46263713275293e+000dB,9.37557239680734e+001°)
1.18850222743703e-001	(9.45267999423922e+000dB,9.37514142925906e+001°)
1.18987132916005e-001	(9.44272276115336e+000dB,9.37471095324063e+001°)
1.19124200802739e-001	(9.43276543010439e+000dB,9.37428096828076e+001°)
1.19261426585583e-001	(9.42280799753224e+000dB,9.37385147364847e+001°)
1.19398810446428e-001	(9.41285046857538e+000dB,9.37342246894361e+001°)
1.19536352567373e-001	(9.40289284229679e+000dB,9.37299395351883e+001°)
1.19674053130725e-001	(9.39293512362513e+000dB,9.37256592730963e+001°)
1.19811912319005e-001	(9.38297729644534e+000dB,9.37213838917599e+001°)
1.19949930314939e-001	(9.37301938906873e+000dB,9.37171133837318e+001°)
1.20088107301468e-001	(9.36306137331425e+000dB,9.37128477533587e+001°)
1.20226443461742e-001	(9.35310325936330e+000dB,9.37085869919984e+001°)
1.20364938979123e-001	(9.34314506017586e+000dB,9.37043310822477e+001°)
1.20503594037181e-001	(9.33318675898345e+000dB,9.37000800315026e+001°)
1.20642408819701e-001	(9.32322835662368e+000dB,9.36958338369734e+001°)
1.20781383510679e-001	(9.31326987458475e+000dB,9.36915924745626e+001°)
1.20920518294322e-001	(9.30331128369745e+000dB,9.36873559625167e+001°)
1.21059813355049e-001	(9.29335260519570e+000dB,9.36831242826264e+001°)
1.21199268877494e-001	(9.28339382432162e+000dB,9.36788974280744e+001°)
1.21338885046499e-001	(9.27343495320255e+000dB,9.36746753989921e+001°)
1.21478662047124e-001	(9.26347598873045e+000dB,9.36704581832334e+001°)
1.21618600064638e-001	(9.25351693674338e+000dB,9.36662457783122e+001°)
1.21758699284527e-001	(9.24355777281995e+000dB,9.36620381869109e+001°)
1.21898959892488e-001	(9.23359853251994e+000dB,9.36578353924028e+001°)
1.22039382074433e-001	(9.22363919107766e+000dB,9.36536373935220e+001°)
1.22179966016488e-001	(9.21367975974181e+000dB,9.36494441860736e+001°)
1.22320711904994e-001	(9.20372023450136e+000dB,9.36452557634166e+001°)
1.22461619926506e-001	(9.19376061419497e+000dB,9.36410721212673e+001°)
1.22602690267794e-001	(9.18380091267717e+000dB,9.36368932476514e+001°)
1.22743923115842e-001	(9.17384110430941e+000dB,9.36327191520023e+001°)
1.22885318657852e-001	(9.16388121472893e+000dB,9.36285498158386e+001°)
1.23026877081240e-001	(9.15392121483237e+000dB,9.36243852421813e+001°)
1.23168598573637e-001	(9.14396114528155e+000dB,9.36202254172881e+001°)
1.23310483322892e-001	(9.13400097963712e+000dB,9.36160703364705e+001°)
1.23452531517070e-001	(9.12404071571041e+000dB,9.36119200023551e+001°)
1.23594743344452e-001	(9.11408036331069e+000dB,9.36077744048934e+001°)
1.23737118993537e-001	(9.10411992290407e+000dB,9.36036335377686e+001°)
1.23879658653038e-001	(9.09415938569403e+000dB,9.35994973971360e+001°)
1.24022362511890e-001	(9.08419877025138e+000dB,9.35953659752233e+001°)
1.24165230759243e-001	(9.07423804904076e+000dB,9.35912392756750e+001°)
1.24308263584464e-001	(9.06427724030275e+000dB,9.35871172817501e+001°)
1.24451461177140e-001	(9.05431634692170e+000dB,9.35829999969189e+001°)
1.24594823727076e-001	(9.04435536836791e+000dB,9.35788874018026e+001°)
1.24738351424296e-001	(9.03439429187367e+000dB,9.35747795124672e+001°)
1.24882044459041e-001	(9.02443312896081e+000dB,9.35706763094092e+001°)
1.25025903021773e-001	(9.01447187872365e+000dB,9.35665777895698e+001°)
1.25169927303174e-001	(9.00451053393753e+000dB,9.35624839485688e+001°)
1.25314117494143e-001	(8.99454910576931e+000dB,9.35583947807355e+001°)
1.25458473785801e-001	(8.98458759285525e+000dB,9.35543102803464e+001°)
1.25602996369489e-001	(8.97462598744559e+000dB,9.35502304416179e+001°)
1.25747685436767e-001	(8.96466430031238e+000dB,9.35461552587790e+001°)
1.25892541179418e-001	(8.95470252029907e+000dB,9.35420847336515e+001°)
1.26037563789444e-001	(8.94474064843634e+000dB,9.35380188526928e+001°)
1.26182753459069e-001	(8.93477868884163e+000dB,9.35339576177332e+001°)
1.26328110380737e-001	(8.92481664848880e+000dB,9.35299010139128e+001°)
1.26473634747117e-001	(8.91485451869651e+000dB,9.35258490429724e+001°)
1.26619326751096e-001	(8.90489229683650e+000dB,9.35218017041117e+001°)
1.26765186585786e-001	(8.89492999256947e+000dB,9.35177589837070e+001°)
1.26911214444521e-001	(8.88496761228744e+000dB,9.35137208706643e+001°)
1.27057410520856e-001	(8.87500513104624e+000dB,9.35096873807954e+001°)
1.27203775008571e-001	(8.86504256738515e+000dB,9.35056584914546e+001°)
1.27350308101668e-001	(8.85507992107422e+000dB,9.35016342031275e+001°)
1.27497009994373e-001	(8.84511719159127e+000dB,9.34976145059388e+001°)
1.27643880881136e-001	(8.83515438149027e+000dB,9.34935993991220e+001°)
1.27790920956630e-001	(8.82519146790616e+000dB,9.34895888816881e+001°)
1.27938130415754e-001	(8.81522848459807e+000dB,9.34855829415039e+001°)
1.28085509453630e-001	(8.80526541148606e+000dB,9.34815815776284e+001°)
1.28233058265604e-001	(8.79530225362478e+000dB,9.34775847802654e+001°)
1.28380777047249e-001	(8.78533901276626e+000dB,9.34735925487365e+001°)
1.28528665994363e-001	(8.77537569365930e+000dB,9.34696048745937e+001°)
1.28676725302969e-001	(8.76541227547338e+000dB,9.34656217595625e+001°)
1.28824955169315e-001	(8.75544878172333e+000dB,9.34616431922027e+001°)
1.28973355789877e-001	(8.74548520074944e+000dB,9.34576691652332e+001°)
1.29121927361355e-001	(8.73552154631280e+000dB,9.34536996789665e+001°)
1.29270670080678e-001	(8.72555779678182e+000dB,9.34497347247286e+001°)
1.29419584145000e-001	(8.71559397199461e+000dB,9.34457742997251e+001°)
1.29568669751704e-001	(8.70563005644126e+000dB,9.34418184046599e+001°)
1.29717927098397e-001	(8.69566606313275e+000dB,9.34378670209245e+001°)
1.29867356382918e-001	(8.68570198903219e+000dB,9.34339201468460e+001°)
1.30016957803331e-001	(8.67573782458189e+000dB,9.34299777899700e+001°)
1.30166731557928e-001	(8.66577358234034e+000dB,9.34260399311508e+001°)
1.30316677845232e-001	(8.65580925880087e+000dB,9.34221065715382e+001°)
1.30466796863991e-001	(8.64584485667044e+000dB,9.34181777038431e+001°)
1.30617088813186e-001	(8.63588037526574e+000dB,9.34142533207706e+001°)
1.30767553892024e-001	(8.62591581058662e+000dB,9.34103334243367e+001°)
1.30918192299943e-001	(8.61595115832293e+000dB,9.34064180039829e+001°)
1.31069004236610e-001	(8.60598643030196e+000dB,9.34025070581871e+001°)
1.31219989901922e-001	(8.59602162191820e+000dB,9.33986005758498e+001°)
1.31371149496008e-001	(8.58605672527379e+000dB,9.33946985632325e+001°)
1.31522483219226e-001	(8.57609174835327e+000dB,9.33908010036216e+001°)
1.31673991272164e-001	(8.56612670242517e+000dB,9.33869078965059e+001°)
1.31825673855643e-001	(8.55616157574820e+000dB,9.33830192383042e+001°)
1.31977531170713e-001	(8.54619636283524e+000dB,9.33791350175911e+001°)
1.32129563418659e-001	(8.53623106475406e+000dB,9.33752552439982e+001°)
1.32281770800995e-001	(8.52626569523189e+000dB,9.33713798966442e+001°)
1.32434153519468e-001	(8.51630024842693e+000dB,9.33675089784961e+001°)
1.32586711776058e-001	(8.50633471492741e+000dB,9.33636424804117e+001°)
1.32739445772976e-001	(8.49636910164244e+000dB,9.33597804038616e+001°)
1.32892355712668e-001	(8.48640341522515e+000dB,9.33559227376052e+001°)
1.33045441797811e-001	(8.47643764907626e+000dB,9.33520694782793e+001°)
1.33198704231318e-001	(8.46647180794792e+000dB,9.33482206208943e+001°)
1.33352143216334e-001	(8.45650588491317e+000dB,9.33443761643454e+001°)
1.33505758956239e-001	(8.44653988435917e+000dB,9.33405360964063e+001°)
1.33659551654646e-001	(8.43657380727671e+000dB,9.33367004191428e+001°)
1.33813521515404e-001	(8.42660765446212e+000dB,9.33328691252362e+001°)
1.33967668742596e-001	(8.41664141991647e+000dB,9.33290422072927e+001°)
1.34121993540539e-001	(8.40667510078498e+000dB,9.33252196663135e+001°)
1.34276496113788e-001	(8.39670871391503e+000dB,9.33214014869453e+001°)
1.34431176667133e-001	(8.38674224954425e+000dB,9.33175876730041e+001°)
1.34586035405597e-001	(8.37677569764531e+000dB,9.33137782195552e+001°)
1.34741072534443e-001	(8.36680908298893e+000dB,9.33099731180569e+001°)
1.34896288259168e-001	(8.35684238857447e+000dB,9.33061723650168e+001°)
1.35051682785506e-001	(8.34687562220297e+000dB,9.33023759523530e+001°)
1.35207256319430e-001	(8.33690876816357e+000dB,9.32985838817056e+001°)
1.35363009067148e-001	(8.32694184062404e+000dB,9.32947961468854e+001°)
1.35518941235106e-001	(8.31697484357025e+000dB,9.32910127380930e+001°)
1.35675053029988e-001	(8.30700776576722e+000dB,9.32872336520728e+001°)
1.35831344658718e-001	(8.29704061757932e+000dB,9.32834588836866e+001°)
1.35987816328454e-001	(8.28707338575489e+000dB,9.32796884320148e+001°)
1.36144468246597e-001	(8.27710608876100e+000dB,9.32759222890873e+001°)
1.36301300620785e-001	(8.26713870957154e+000dB,9.32721604535098e+001°)
1.36458313658895e-001	(8.25717125619669e+000dB,9.32684029103525e+001°)
1.36615507569043e-001	(8.24720372993429e+000dB,9.32646496703201e+001°)
1.36772882559587e-001	(8.23723613673515e+000dB,9.32609007146055e+001°)
1.36930438839123e-001	(8.22726846227794e+000dB,9.32571560432995e+001°)
1.37088176616488e-001	(8.21730071232734e+000dB,9.32534156560336e+001°)
1.37246096100759e-001	(8.20733288901416e+000dB,9.32496795420440e+001°)
1.37404197501254e-001	(8.19736498762028e+000dB,9.32459477002656e+001°)
1.37562481027533e-001	(8.18739701503369e+000dB,9.32422201197850e+001°)
1.37720946889397e-001	(8.17742897476426e+000dB,9.32384968058611e+001°)
1.37879595296888e-001	(8.16746085975204e+000dB,9.32347777432382e+001°)
1.38038426460291e-001	(8.15749267138736e+000dB,9.32310629311961e+001°)
